time	V(v1)	V(v2)	V(vo1)	V(vo2)
0.000000000000000e+000	0.000000e+000	0.000000e+000	3.961987e-003	2.441057e-007
2.247040765523503e-008	1.411857e-004	1.411857e-004	3.960081e-003	-1.866251e-006
4.494081531047006e-008	2.823715e-004	2.823715e-004	3.960970e-003	-9.246627e-007
6.741122296570509e-008	4.235572e-004	4.235572e-004	3.964653e-003	3.068872e-006
8.988163062094011e-008	5.647429e-004	5.647429e-004	3.971132e-003	1.011435e-005
1.123520382761751e-007	7.059286e-004	7.059286e-004	3.980405e-003	2.021178e-005
1.348224459314102e-007	8.471143e-004	8.471143e-004	3.992474e-003	3.336115e-005
1.572928535866452e-007	9.883000e-004	9.883000e-004	4.007337e-003	4.956247e-005
2.155577420925033e-007	1.354389e-003	1.354389e-003	4.084301e-003	1.331865e-004
2.840781246766692e-007	1.784915e-003	1.784915e-003	4.243780e-003	3.052781e-004
3.716995275462020e-007	2.335455e-003	2.335455e-003	4.570073e-003	6.529726e-004
4.760162635945951e-007	2.990894e-003	2.990894e-003	5.139559e-003	1.245725e-003
6.136667144625442e-007	3.855772e-003	3.855772e-003	6.139038e-003	2.248616e-003
7.562781517410766e-007	4.751818e-003	4.751818e-003	7.397384e-003	3.436949e-003
9.344033751232854e-007	5.870996e-003	5.870996e-003	9.160057e-003	4.960643e-003
1.106945262174526e-006	6.955086e-003	6.955086e-003	1.095251e-002	6.334849e-003
1.267166864643034e-006	7.961760e-003	7.961760e-003	1.263882e-002	7.443028e-003
1.434157524705547e-006	9.010956e-003	9.010956e-003	1.439563e-002	8.404595e-003
1.636966800671677e-006	1.028518e-002	1.028518e-002	1.653503e-002	9.374438e-003
1.804804532771811e-006	1.133968e-002	1.133968e-002	1.832553e-002	1.005455e-002
1.967497231294607e-006	1.236183e-002	1.236183e-002	2.009480e-002	1.062488e-002
2.183663309328374e-006	1.371993e-002	1.371993e-002	2.249674e-002	1.129785e-002
2.380564674943115e-006	1.495697e-002	1.495697e-002	2.473305e-002	1.183784e-002
2.655088494575725e-006	1.668164e-002	1.668164e-002	2.791545e-002	1.247942e-002
2.978044148134900e-006	1.871051e-002	1.871051e-002	3.172160e-002	1.310222e-002
3.287064646290051e-006	2.065177e-002	2.065177e-002	3.541828e-002	1.356786e-002
3.700231609860796e-006	2.324715e-002	2.324715e-002	4.042855e-002	1.403002e-002
4.176693180103648e-006	2.623993e-002	2.623993e-002	4.627764e-002	1.440463e-002
4.712721062290752e-006	2.960657e-002	2.960657e-002	5.293196e-002	1.466424e-002
5.433416282712049e-006	3.413253e-002	3.413253e-002	6.196314e-002	1.482178e-002
6.484527411176080e-006	4.073222e-002	4.073222e-002	7.522571e-002	1.483390e-002
7.542797258140606e-006	4.737505e-002	4.737505e-002	8.863480e-002	1.469629e-002
8.842381303706518e-006	5.552974e-002	5.552974e-002	1.051290e-001	1.442659e-002
1.012712611335453e-005	6.358768e-002	6.358768e-002	1.214256e-001	1.413344e-002
1.215288076314435e-005	7.628462e-002	7.628462e-002	1.470742e-001	1.369389e-002
1.431720891287508e-005	8.983640e-002	8.983640e-002	1.743966e-001	1.329387e-002
1.803765558648248e-005	1.130915e-001	1.130915e-001	2.211819e-001	1.275645e-002
2.241762433073325e-005	1.403888e-001	1.403888e-001	2.759568e-001	1.230042e-002
3.072366846371106e-005	1.918458e-001	1.918458e-001	3.791408e-001	1.169613e-002
3.637932846027146e-005	2.265928e-001	2.265928e-001	4.488108e-001	1.139326e-002
4.872510253234095e-005	3.013888e-001	3.013888e-001	5.986885e-001	1.087707e-002
6.555567775761435e-005	4.003497e-001	4.003497e-001	7.969613e-001	1.026667e-002
7.858410724894865e-005	4.739388e-001	4.739388e-001	9.441146e-001	9.786925e-003
9.858410724894864e-005	5.805648e-001	5.805648e-001	1.157428e+000	8.987313e-003
1.185841072489486e-004	6.780350e-001	6.780350e-001	1.352836e+000	8.091202e-003
1.385841072489487e-004	7.648121e-001	7.648121e-001	1.526958e+000	7.093239e-003
1.585841072489487e-004	8.395277e-001	8.395277e-001	1.677054e+000	5.999457e-003
1.785841072489487e-004	9.010034e-001	9.010034e-001	1.800759e+000	4.821525e-003
1.985841072489487e-004	9.482698e-001	9.482698e-001	1.896125e+000	3.574441e-003
2.185841072489487e-004	9.805814e-001	9.805814e-001	1.961647e+000	2.275397e-003
2.385841072489487e-004	9.974287e-001	9.974287e-001	1.996295e+000	9.430294e-004
2.585841072489487e-004	9.985458e-001	9.985458e-001	1.999522e+000	-4.031659e-004
2.785841072489487e-004	9.839154e-001	9.839154e-001	1.971278e+000	-1.743348e-003
2.985841072489488e-004	9.537680e-001	9.537680e-001	1.912009e+000	-3.057827e-003
3.185841072489488e-004	9.085791e-001	9.085791e-001	1.822651e+000	-4.327567e-003
3.385841072489489e-004	8.490613e-001	8.490613e-001	1.704613e+000	-5.534737e-003
3.585841072489489e-004	7.761534e-001	7.761534e-001	1.559760e+000	-6.663381e-003
3.785841072489490e-004	6.910051e-001	6.910051e-001	1.390377e+000	-7.700362e-003
3.985841072489490e-004	5.949591e-001	5.949591e-001	1.199141e+000	-8.637010e-003
4.185841072489491e-004	4.895304e-001	4.895304e-001	9.890732e-001	-9.472640e-003
4.385841072489491e-004	3.763815e-001	3.763815e-001	7.635034e-001	-1.022403e-002
4.485841072489492e-004	3.174655e-001	3.174655e-001	6.460201e-001	-1.058596e-002
4.585841072489492e-004	2.572967e-001	2.572967e-001	5.260319e-001	-1.096127e-002
4.685841072489492e-004	1.961125e-001	1.961125e-001	4.040365e-001	-1.139138e-002
4.785841072489493e-004	1.341543e-001	1.341543e-001	2.805796e-001	-1.198208e-002
4.885841072489492e-004	7.166668e-002	7.166668e-002	1.563479e-001	-1.301622e-002
4.985841072489493e-004	8.896199e-003	8.896199e-003	3.187302e-002	-1.453303e-002
5.062449659458357e-004	-3.922821e-002	-3.922821e-002	-6.416047e-002	-1.502589e-002
5.109407083010608e-004	-6.868837e-002	-6.868837e-002	-1.237497e-001	-1.409999e-002
5.123941497577717e-004	-7.779605e-002	-7.779605e-002	-1.421463e-001	-1.364840e-002
5.139434938242737e-004	-8.749752e-002	-8.749752e-002	-1.617437e-001	-1.344762e-002
5.152447339361776e-004	-9.564005e-002	-9.564005e-002	-1.781450e-001	-1.322080e-002
5.165459740480814e-004	-1.037750e-001	-1.037750e-001	-1.945201e-001	-1.301384e-002
5.178472141599853e-004	-1.119022e-001	-1.119022e-001	-2.108692e-001	-1.282674e-002
5.191484542718892e-004	-1.200219e-001	-1.200219e-001	-2.271922e-001	-1.265952e-002
5.204496943837931e-004	-1.281339e-001	-1.281339e-001	-2.434891e-001	-1.251216e-002
5.217509344956969e-004	-1.362384e-001	-1.362384e-001	-2.597599e-001	-1.238467e-002
5.230521746076008e-004	-1.443352e-001	-1.443352e-001	-2.760046e-001	-1.227705e-002
5.278209059814657e-004	-1.739150e-001	-1.739150e-001	-3.353276e-001	-1.190449e-002
5.329537385083331e-004	-2.055782e-001	-2.055782e-001	-3.987985e-001	-1.159109e-002
5.385563599867951e-004	-2.398941e-001	-2.398941e-001	-4.675097e-001	-1.131413e-002
5.460143095081984e-004	-2.851054e-001	-2.851054e-001	-5.579934e-001	-1.099764e-002
5.621773356030927e-004	-3.808096e-001	-3.808096e-001	-7.495795e-001	-1.039478e-002
5.811237662162023e-004	-4.879291e-001	-4.879291e-001	-9.639035e-001	-9.692972e-003
6.011237662162023e-004	-5.934829e-001	-5.934829e-001	-1.175393e+000	-8.881215e-003
6.211237662162024e-004	-6.896771e-001	-6.896771e-001	-1.368262e+000	-7.971405e-003
6.411237662162024e-004	-7.749947e-001	-7.749947e-001	-1.539478e+000	-6.960269e-003
6.611237662162025e-004	-8.480902e-001	-8.480902e-001	-1.686346e+000	-5.854728e-003
6.811237662162025e-004	-9.078108e-001	-9.078108e-001	-1.806551e+000	-4.666883e-003
7.011237662162026e-004	-9.532147e-001	-9.532147e-001	-1.898201e+000	-3.412023e-003
7.211237662162026e-004	-9.835858e-001	-9.835858e-001	-1.959850e+000	-2.107536e-003
7.411237662162027e-004	-9.984452e-001	-9.984452e-001	-1.990528e+000	-7.721818e-004
7.611237662162027e-004	-9.975585e-001	-9.975585e-001	-1.989751e+000	5.744831e-004
7.811237662162028e-004	-9.809397e-001	-9.809397e-001	-1.957533e+000	1.912621e-003
8.011237662162028e-004	-9.488509e-001	-9.488509e-001	-1.894381e+000	3.222607e-003
8.211237662162029e-004	-9.017982e-001	-9.017982e-001	-1.801293e+000	4.485541e-003
8.411237662162029e-004	-8.405235e-001	-8.405235e-001	-1.679738e+000	5.683814e-003
8.611237662162030e-004	-7.659934e-001	-7.659934e-001	-1.531635e+000	6.801801e-003
8.811237662162031e-004	-6.793830e-001	-6.793830e-001	-1.359322e+000	7.826889e-003
9.011237662162031e-004	-5.820583e-001	-5.820583e-001	-1.165520e+000	8.751301e-003
9.211237662162032e-004	-4.755543e-001	-4.755543e-001	-9.532944e-001	9.576160e-003
9.411237662162032e-004	-3.615505e-001	-3.615505e-001	-7.260097e-001	1.032281e-002
9.511237662162032e-004	-3.022941e-001	-3.022941e-001	-6.078461e-001	1.068874e-002
9.611237662162033e-004	-2.418447e-001	-2.418447e-001	-4.873027e-001	1.107809e-002
9.711237662162033e-004	-1.804409e-001	-1.804409e-001	-3.648871e-001	1.154501e-002
9.811237662162033e-004	-1.183250e-001	-1.183250e-001	-2.411733e-001	1.223424e-002
9.911237662162033e-004	-5.574211e-002	-5.574211e-002	-1.169043e-001	1.348637e-002
1.001123766216203e-003	7.060773e-003	7.060773e-003	7.659920e-003	1.505020e-002
1.005976522416248e-003	3.754277e-002	3.754277e-002	6.867319e-002	1.515724e-002
1.008174738784149e-003	5.134082e-002	5.134082e-002	9.659488e-002	1.470376e-002
1.010027249711734e-003	6.296139e-002	6.296139e-002	1.201514e-001	1.417331e-002
1.012240756879592e-003	7.683514e-002	7.683514e-002	1.481972e-001	1.366789e-002
1.015738152123838e-003	9.872465e-002	9.872465e-002	1.923226e-001	1.304659e-002
1.018465075690380e-003	1.157594e-001	1.157594e-001	2.265875e-001	1.268294e-002
1.020602379002769e-003	1.290873e-001	1.290873e-001	2.533519e-001	1.245394e-002
1.024876985627548e-003	1.556710e-001	1.556710e-001	3.066831e-001	1.208152e-002
1.029789091582168e-003	1.860794e-001	1.860794e-001	3.676585e-001	1.174370e-002
1.035036395867023e-003	2.183664e-001	2.183664e-001	4.323767e-001	1.145843e-002
1.040126256023568e-003	2.494582e-001	2.494582e-001	4.946533e-001	1.122383e-002
1.046525381212842e-003	2.881818e-001	2.881818e-001	5.720516e-001	1.096405e-002
1.056525381212842e-003	3.477399e-001	3.477399e-001	6.910979e-001	1.059194e-002
1.076525381212842e-003	4.625092e-001	4.625092e-001	9.209151e-001	9.864042e-003
1.096525381212842e-003	5.699844e-001	5.699844e-001	1.136225e+000	9.073555e-003
1.116525381212842e-003	6.684706e-001	6.684706e-001	1.333654e+000	8.188158e-003
1.136525381212842e-003	7.564147e-001	7.564147e-001	1.510100e+000	7.200540e-003
1.156525381212842e-003	8.324296e-001	8.324296e-001	1.662785e+000	6.116159e-003
1.176525381212842e-003	8.953167e-001	8.953167e-001	1.789304e+000	4.946244e-003
1.196525381212843e-003	9.440840e-001	9.440840e-001	1.887664e+000	3.705516e-003
1.216525381212843e-003	9.779627e-001	9.779627e-001	1.956315e+000	2.410980e-003
1.236525381212843e-003	9.964182e-001	9.964182e-001	1.994174e+000	1.081153e-003
1.256525381212843e-003	9.991596e-001	9.991596e-001	2.000646e+000	-2.645331e-004
1.276525381212843e-003	9.861437e-001	9.861437e-001	1.975629e+000	-1.606250e-003
1.296525381212843e-003	9.575757e-001	9.575757e-001	1.919519e+000	-2.924269e-003
1.316525381212843e-003	9.139062e-001	9.139062e-001	1.833201e+000	-4.199463e-003
1.336525381212843e-003	8.558238e-001	8.558238e-001	1.718037e+000	-5.413849e-003
1.356525381212843e-003	7.842445e-001	7.842445e-001	1.575845e+000	-6.551240e-003
1.376525381212843e-003	7.002973e-001	7.002973e-001	1.408870e+000	-7.598152e-003
1.396525381212843e-003	6.053060e-001	6.053060e-001	1.219749e+000	-8.545339e-003
1.416525381212843e-003	5.007686e-001	5.007686e-001	1.011471e+000	-9.391020e-003
1.436525381212843e-003	3.883338e-001	3.883338e-001	7.873355e-001	-1.014934e-002
1.446525381212843e-003	3.297049e-001	3.297049e-001	6.704274e-001	-1.051132e-002
1.456525381212843e-003	2.697747e-001	2.697747e-001	5.509150e-001	-1.088136e-002
1.466525381212843e-003	2.087799e-001	2.087799e-001	4.292904e-001	-1.129452e-002
1.476525381212843e-003	1.469612e-001	1.469612e-001	3.060855e-001	-1.183777e-002
1.486525381212843e-003	8.456242e-002	8.456242e-002	1.819447e-001	-1.274404e-002
1.496525381212843e-003	2.182994e-002	2.182994e-002	5.754916e-002	-1.424144e-002
1.504642204345024e-003	-2.916369e-002	-2.916369e-002	-4.385988e-002	-1.528677e-002
1.508155541315444e-003	-5.122035e-002	-5.122035e-002	-8.834658e-002	-1.487303e-002
1.509599456598330e-003	-6.027860e-002	-6.027860e-002	-1.066932e-001	-1.438442e-002
1.510585469529106e-003	-6.646187e-002	-6.646187e-002	-1.192218e-001	-1.415645e-002
1.511571482459882e-003	-7.264206e-002	-7.264206e-002	-1.317291e-001	-1.393994e-002
1.512557495390659e-003	-7.881915e-002	-7.881915e-002	-1.442153e-001	-1.373487e-002
1.513543508321435e-003	-8.499315e-002	-8.499315e-002	-1.566803e-001	-1.354125e-002
1.514529521252211e-003	-9.116406e-002	-9.116406e-002	-1.691241e-001	-1.335908e-002
1.515515534182987e-003	-9.733188e-002	-9.733188e-002	-1.815467e-001	-1.318836e-002
1.516501547113764e-003	-1.034966e-001	-1.034966e-001	-1.939481e-001	-1.302909e-002
1.518984367773093e-003	-1.189996e-001	-1.189996e-001	-2.251129e-001	-1.270512e-002
1.523556175864745e-003	-1.474680e-001	-1.474680e-001	-2.822398e-001	-1.224541e-002
1.530128068887634e-003	-1.881717e-001	-1.881717e-001	-3.638307e-001	-1.176320e-002
1.537236880873350e-003	-2.318375e-001	-2.318375e-001	-4.513688e-001	-1.137625e-002
1.543187160238953e-003	-2.680351e-001	-2.680351e-001	-5.238963e-001	-1.111220e-002
1.558850881875181e-003	-3.614019e-001	-3.614019e-001	-7.106542e-001	-1.051556e-002
1.578155273794351e-003	-4.715645e-001	-4.715645e-001	-9.312009e-001	-9.806014e-003
1.597373859484000e-003	-5.743566e-001	-5.743566e-001	-1.137134e+000	-9.040766e-003
1.616750354638684e-003	-6.695213e-001	-6.695213e-001	-1.327837e+000	-8.179074e-003
1.636743701316090e-003	-7.573112e-001	-7.573112e-001	-1.503975e+000	-7.190094e-003
1.656743701316090e-003	-8.331890e-001	-8.331890e-001	-1.656387e+000	-6.104350e-003
1.676743701316090e-003	-8.959269e-001	-8.959269e-001	-1.782609e+000	-4.933320e-003
1.696743701316090e-003	-9.445354e-001	-9.445354e-001	-1.880652e+000	-3.691714e-003
1.716743701316090e-003	-9.782481e-001	-9.782481e-001	-1.948971e+000	-2.396531e-003
1.736743701316090e-003	-9.965332e-001	-9.965332e-001	-1.986491e+000	-1.066285e-003
1.756743701316090e-003	-9.991025e-001	-9.991025e-001	-1.992619e+000	2.795967e-004
1.776743701316090e-003	-9.859152e-001	-9.859152e-001	-1.967259e+000	1.621295e-003
1.796743701316090e-003	-9.571795e-001	-9.571795e-001	-1.910814e+000	2.939096e-003
1.816743701316090e-003	-9.133485e-001	-9.133485e-001	-1.824172e+000	4.213896e-003
1.836743701316090e-003	-8.551134e-001	-8.551134e-001	-1.708703e+000	5.427747e-003
1.856743701316090e-003	-7.833927e-001	-7.833927e-001	-1.566228e+000	6.564521e-003
1.876743701316090e-003	-6.993175e-001	-6.993175e-001	-1.398997e+000	7.610827e-003
1.896743701316090e-003	-6.042135e-001	-6.042135e-001	-1.209650e+000	8.557599e-003
1.916743701316090e-003	-4.995808e-001	-4.995808e-001	-1.001182e+000	9.403436e-003
1.936743701316090e-003	-3.870693e-001	-3.870693e-001	-7.768932e-001	1.016346e-002
1.946743701316090e-003	-3.284095e-001	-3.284095e-001	-6.599244e-001	1.052775e-002
1.956743701316090e-003	-2.684536e-001	-2.684536e-001	-5.403627e-001	1.090224e-002
1.966743701316090e-003	-2.074382e-001	-2.074382e-001	-4.187017e-001	1.132444e-002
1.976743701316090e-003	-1.456042e-001	-1.456042e-001	-2.954783e-001	1.188855e-002
1.986743701316090e-003	-8.319551e-002	-8.319551e-002	-1.713532e-001	1.284758e-002
1.996743701316090e-003	-2.045850e-002	-2.045850e-002	-4.692727e-002	1.432558e-002
2.005512024815661e-003	3.462615e-002	3.462615e-002	6.287163e-002	1.506523e-002
2.009876143599154e-003	6.201382e-002	6.201382e-002	1.182564e-001	1.423103e-002
2.011314425208677e-003	7.103077e-002	7.103077e-002	1.364752e-001	1.374286e-002
2.012700972488887e-003	7.971789e-002	7.971789e-002	1.540463e-001	1.357711e-002
2.013881932979454e-003	8.711291e-002	8.711291e-002	1.689437e-001	1.335299e-002
2.015062893470020e-003	9.450222e-002	9.450222e-002	1.838218e-001	1.314834e-002
2.016243853960586e-003	1.018858e-001	1.018858e-001	1.986806e-001	1.296316e-002
2.017424814451152e-003	1.092637e-001	1.092637e-001	2.135202e-001	1.279746e-002
2.018605774941718e-003	1.166359e-001	1.166359e-001	2.283406e-001	1.265122e-002
2.019786735432284e-003	1.240024e-001	1.240024e-001	2.431416e-001	1.252446e-002
2.020967695922850e-003	1.313632e-001	1.313632e-001	2.579235e-001	1.241717e-002
2.024563469469011e-003	1.537248e-001	1.537248e-001	3.027779e-001	1.210549e-002
2.030325694469535e-003	1.893911e-001	1.893911e-001	3.742461e-001	1.171694e-002
2.037055025658986e-003	2.307259e-001	2.307259e-001	4.570173e-001	1.136549e-002
2.045081961872532e-003	2.794856e-001	2.794856e-001	5.546147e-001	1.102262e-002
2.053649793894172e-003	3.307438e-001	3.307438e-001	6.572323e-001	1.069751e-002
2.071265114274674e-003	4.329582e-001	4.329582e-001	8.618975e-001	1.005834e-002
2.090356177464039e-003	5.377150e-001	5.377150e-001	1.071566e+000	9.326736e-003
2.110344815497847e-003	6.390918e-001	6.390918e-001	1.274745e+000	8.472731e-003
2.130344815497847e-003	7.304500e-001	7.304500e-001	1.457988e+000	7.516479e-003
2.150344815497847e-003	8.102885e-001	8.102885e-001	1.618291e+000	6.461007e-003
2.170344815497847e-003	8.773484e-001	8.773484e-001	1.753128e+000	5.316084e-003
2.190344815497847e-003	9.305719e-001	9.305719e-001	1.860377e+000	4.095512e-003
2.210344815497847e-003	9.691197e-001	9.691197e-001	1.938346e+000	2.815684e-003
2.230344815497847e-003	9.923839e-001	9.923839e-001	1.985807e+000	1.494720e-003
2.250344815497847e-003	9.999977e-001	9.999977e-001	2.002013e+000	1.518264e-004
2.270344815497847e-003	9.918408e-001	9.918408e-001	1.986708e+000	-1.193238e-003
2.290344815497847e-003	9.680421e-001	9.680421e-001	1.940134e+000	-2.520661e-003
2.310344815497847e-003	9.289768e-001	9.289768e-001	1.863028e+000	-3.811074e-003
2.330344815497848e-003	8.752609e-001	8.752609e-001	1.756605e+000	-5.046078e-003
2.350344815497848e-003	8.077416e-001	8.077416e-001	1.622545e+000	-6.208851e-003
2.370344815497848e-003	7.274838e-001	7.274838e-001	1.462965e+000	-7.284949e-003
2.390344815497848e-003	6.357532e-001	6.357532e-001	1.280384e+000	-8.263586e-003
2.410344815497848e-003	5.339963e-001	5.339963e-001	1.077687e+000	-9.140138e-003
2.430344815497848e-003	4.238180e-001	4.238180e-001	8.580830e-001	-9.922265e-003
2.450344815497848e-003	3.069558e-001	3.069558e-001	6.250615e-001	-1.065019e-002
2.460344815497848e-003	2.465908e-001	2.465908e-001	5.046831e-001	-1.103134e-002
2.470344815497848e-003	1.852527e-001	1.852527e-001	3.823886e-001	-1.147912e-002
2.480344815497848e-003	1.231835e-001	1.231835e-001	2.587385e-001	-1.211924e-002
2.490344815497848e-003	6.062811e-002	6.062811e-002	1.344557e-001	-1.327391e-002
2.500344815497848e-003	-2.166538e-003	-2.166538e-003	9.960596e-003	-1.486584e-002
2.505933683774829e-003	-3.727380e-002	-3.727380e-002	-6.016042e-002	-1.518407e-002
2.509245518883789e-003	-5.805864e-002	-5.805864e-002	-1.021952e-001	-1.457347e-002
2.510786389004948e-003	-6.772101e-002	-6.772101e-002	-1.217681e-001	-1.410291e-002
2.511803759467382e-003	-7.409779e-002	-7.409779e-002	-1.346650e-001	-1.387664e-002
2.512821129929815e-003	-8.047093e-002	-8.047093e-002	-1.475421e-001	-1.366515e-002
2.513838500392249e-003	-8.684042e-002	-8.684042e-002	-1.603993e-001	-1.346844e-002
2.514855870854682e-003	-9.320626e-002	-9.320626e-002	-1.732365e-001	-1.328651e-002
2.515873241317116e-003	-9.956845e-002	-9.956845e-002	-1.860539e-001	-1.311935e-002
2.516890611779549e-003	-1.059270e-001	-1.059270e-001	-1.988513e-001	-1.296697e-002
2.517907982241983e-003	-1.122819e-001	-1.122819e-001	-2.116289e-001	-1.282936e-002
2.520004409478225e-003	-1.253607e-001	-1.253607e-001	-2.379122e-001	-1.257905e-002
2.523663812147156e-003	-1.481369e-001	-1.481369e-001	-2.836079e-001	-1.222987e-002
2.529796301025552e-003	-1.861240e-001	-1.861240e-001	-3.597337e-001	-1.178308e-002
2.537031654257586e-003	-2.305830e-001	-2.305830e-001	-4.488039e-001	-1.138691e-002
2.544354596384087e-003	-2.750947e-001	-2.750947e-001	-5.379468e-001	-1.106476e-002
2.552308021821362e-003	-3.227760e-001	-3.227760e-001	-6.333993e-001	-1.075652e-002
