v1	V(vo1)	V(vo2)
-1.000000000000000e+001	-8.938615e+000	-9.019952e+000
-9.980000000000000e+000	-8.938618e+000	-9.019955e+000
-9.960000000000001e+000	-8.938621e+000	-9.019958e+000
-9.940000000000001e+000	-8.938623e+000	-9.019960e+000
-9.920000000000002e+000	-8.938626e+000	-9.019963e+000
-9.900000000000002e+000	-8.938629e+000	-9.019966e+000
-9.880000000000003e+000	-8.938632e+000	-9.019969e+000
-9.860000000000003e+000	-8.938634e+000	-9.019972e+000
-9.840000000000003e+000	-8.938637e+000	-9.019975e+000
-9.820000000000004e+000	-8.938640e+000	-9.019978e+000
-9.800000000000004e+000	-8.938643e+000	-9.019979e+000
-9.780000000000005e+000	-8.938645e+000	-9.019982e+000
-9.760000000000005e+000	-8.938648e+000	-9.019985e+000
-9.740000000000006e+000	-8.938651e+000	-9.019988e+000
-9.720000000000006e+000	-8.938654e+000	-9.019991e+000
-9.700000000000006e+000	-8.938657e+000	-9.019994e+000
-9.680000000000007e+000	-8.938660e+000	-9.019997e+000
-9.660000000000007e+000	-8.938663e+000	-9.020000e+000
-9.640000000000008e+000	-8.938665e+000	-9.020001e+000
-9.620000000000008e+000	-8.938668e+000	-9.020004e+000
-9.600000000000009e+000	-8.938671e+000	-9.020007e+000
-9.580000000000009e+000	-8.938674e+000	-9.020010e+000
-9.560000000000009e+000	-8.938676e+000	-9.020013e+000
-9.540000000000010e+000	-8.938679e+000	-9.020016e+000
-9.520000000000010e+000	-8.938682e+000	-9.020019e+000
-9.500000000000011e+000	-8.938684e+000	-9.020021e+000
-9.480000000000011e+000	-8.938687e+000	-9.020023e+000
-9.460000000000012e+000	-8.938690e+000	-9.020026e+000
-9.440000000000012e+000	-8.938693e+000	-9.020029e+000
-9.420000000000012e+000	-8.938696e+000	-9.020032e+000
-9.400000000000013e+000	-8.938699e+000	-9.020035e+000
-9.380000000000013e+000	-8.938702e+000	-9.020038e+000
-9.360000000000014e+000	-8.938704e+000	-9.020040e+000
-9.340000000000014e+000	-8.938706e+000	-9.020042e+000
-9.320000000000015e+000	-8.938709e+000	-9.020045e+000
-9.300000000000015e+000	-8.938712e+000	-9.020048e+000
-9.280000000000015e+000	-8.938715e+000	-9.020051e+000
-9.260000000000016e+000	-8.938718e+000	-9.020054e+000
-9.240000000000016e+000	-8.938721e+000	-9.020056e+000
-9.220000000000017e+000	-8.938724e+000	-9.020059e+000
-9.200000000000017e+000	-8.938725e+000	-9.020061e+000
-9.180000000000018e+000	-8.938728e+000	-9.020064e+000
-9.160000000000018e+000	-8.938731e+000	-9.020067e+000
-9.140000000000018e+000	-8.938734e+000	-9.020070e+000
-9.120000000000019e+000	-8.938737e+000	-9.020072e+000
-9.100000000000019e+000	-8.938740e+000	-9.020075e+000
-9.080000000000020e+000	-8.938743e+000	-9.020078e+000
-9.060000000000020e+000	-8.938745e+000	-9.020081e+000
-9.040000000000021e+000	-8.938747e+000	-9.020083e+000
-9.020000000000021e+000	-8.938750e+000	-9.020085e+000
-9.000000000000021e+000	-8.938753e+000	-9.020088e+000
-8.980000000000022e+000	-8.938756e+000	-9.020091e+000
-8.960000000000022e+000	-8.938759e+000	-9.020094e+000
-8.940000000000023e+000	-8.938762e+000	-9.020097e+000
-8.920000000000023e+000	-8.938764e+000	-9.020099e+000
-8.900000000000023e+000	-8.938766e+000	-9.020102e+000
-8.880000000000024e+000	-8.938769e+000	-9.020104e+000
-8.860000000000024e+000	-8.938772e+000	-9.020107e+000
-8.840000000000025e+000	-8.938775e+000	-9.020110e+000
-8.820000000000025e+000	-8.938778e+000	-9.020112e+000
-8.800000000000026e+000	-8.938780e+000	-9.020115e+000
-8.780000000000026e+000	-8.938783e+000	-9.020118e+000
-8.760000000000026e+000	-8.938786e+000	-9.020121e+000
-8.740000000000027e+000	-8.938788e+000	-9.020123e+000
-8.720000000000027e+000	-8.938791e+000	-9.020125e+000
-8.700000000000028e+000	-8.938794e+000	-9.020128e+000
-8.680000000000028e+000	-8.938796e+000	-9.020131e+000
-8.660000000000029e+000	-8.938799e+000	-9.020134e+000
-8.640000000000029e+000	-8.938802e+000	-9.020136e+000
-8.620000000000029e+000	-8.938805e+000	-9.020139e+000
-8.600000000000030e+000	-8.938807e+000	-9.020142e+000
-8.580000000000030e+000	-8.938809e+000	-9.020144e+000
-8.560000000000031e+000	-8.938812e+000	-9.020146e+000
-8.540000000000031e+000	-8.938815e+000	-9.020149e+000
-8.520000000000032e+000	-8.938818e+000	-9.020152e+000
-8.500000000000032e+000	-8.938821e+000	-9.020155e+000
-8.480000000000032e+000	-8.938823e+000	-9.020157e+000
-8.460000000000033e+000	-8.938826e+000	-9.020160e+000
-8.440000000000033e+000	-8.938828e+000	-9.020163e+000
-8.420000000000034e+000	-8.938831e+000	-9.020165e+000
-8.400000000000034e+000	-8.938834e+000	-9.020167e+000
-8.380000000000035e+000	-8.938836e+000	-9.020170e+000
-8.360000000000035e+000	-8.938839e+000	-9.020173e+000
-8.340000000000035e+000	-8.938842e+000	-9.020176e+000
-8.320000000000036e+000	-8.938845e+000	-9.020178e+000
-8.300000000000036e+000	-8.938847e+000	-9.020181e+000
-8.280000000000037e+000	-8.938849e+000	-9.020184e+000
-8.260000000000037e+000	-8.938852e+000	-9.020185e+000
-8.240000000000038e+000	-8.938855e+000	-9.020188e+000
-8.220000000000038e+000	-8.938858e+000	-9.020191e+000
-8.200000000000038e+000	-8.938860e+000	-9.020193e+000
-8.180000000000039e+000	-8.938863e+000	-9.020196e+000
-8.160000000000039e+000	-8.938866e+000	-9.020198e+000
-8.140000000000040e+000	-8.938869e+000	-9.020199e+000
-8.120000000000040e+000	-8.938870e+000	-9.020199e+000
-8.100000000000041e+000	-8.938873e+000	-9.020196e+000
-8.080000000000041e+000	-8.938876e+000	-9.020186e+000
-8.060000000000041e+000	-8.938878e+000	-9.020163e+000
-8.040000000000042e+000	-8.938881e+000	-9.020109e+000
-8.020000000000042e+000	-8.938882e+000	-9.019991e+000
-8.000000000000043e+000	-8.938883e+000	-9.019738e+000
-7.980000000000043e+000	-8.938882e+000	-9.019218e+000
-7.960000000000044e+000	-8.938877e+000	-9.018195e+000
-7.940000000000044e+000	-8.938867e+000	-9.016316e+000
-7.920000000000044e+000	-8.938847e+000	-9.013108e+000
-7.900000000000045e+000	-8.938813e+000	-9.007959e+000
-7.880000000000045e+000	-8.938760e+000	-8.999957e+000
-7.860000000000046e+000	-8.938672e+000	-8.987051e+000
-7.840000000000046e+000	-8.938529e+000	-8.966032e+000
-7.820000000000047e+000	-8.938288e+000	-8.930862e+000
-7.800000000000047e+000	-8.937961e+000	-8.883019e+000
-7.780000000000047e+000	-8.937604e+000	-8.830725e+000
-7.760000000000048e+000	-8.937245e+000	-8.777945e+000
-7.740000000000048e+000	-8.936889e+000	-8.725100e+000
-7.720000000000049e+000	-8.936533e+000	-8.672243e+000
-7.700000000000049e+000	-8.936179e+000	-8.619383e+000
-7.680000000000050e+000	-8.935826e+000	-8.566520e+000
-7.660000000000050e+000	-8.935475e+000	-8.513656e+000
-7.640000000000050e+000	-8.935126e+000	-8.460789e+000
-7.620000000000051e+000	-8.934778e+000	-8.407921e+000
-7.600000000000051e+000	-8.934432e+000	-8.355050e+000
-7.580000000000052e+000	-8.934088e+000	-8.302177e+000
-7.560000000000052e+000	-8.933744e+000	-8.249304e+000
-7.540000000000052e+000	-8.933403e+000	-8.196427e+000
-7.520000000000053e+000	-8.933063e+000	-8.143549e+000
-7.500000000000053e+000	-8.932723e+000	-8.090670e+000
-7.480000000000054e+000	-8.932385e+000	-8.037788e+000
-7.460000000000054e+000	-8.932050e+000	-7.984905e+000
-7.440000000000055e+000	-8.931715e+000	-7.932023e+000
-7.420000000000055e+000	-8.931381e+000	-7.879134e+000
-7.400000000000055e+000	-8.931049e+000	-7.826242e+000
-7.380000000000056e+000	-8.930718e+000	-7.773349e+000
-7.360000000000056e+000	-8.930389e+000	-7.720454e+000
-7.340000000000057e+000	-8.930061e+000	-7.667557e+000
-7.320000000000057e+000	-8.929734e+000	-7.614658e+000
-7.300000000000058e+000	-8.929409e+000	-7.561758e+000
-7.280000000000058e+000	-8.929085e+000	-7.508856e+000
-7.260000000000058e+000	-8.928762e+000	-7.455953e+000
-7.240000000000059e+000	-8.928440e+000	-7.403047e+000
-7.220000000000059e+000	-8.928120e+000	-7.350140e+000
-7.200000000000060e+000	-8.927800e+000	-7.297232e+000
-7.180000000000060e+000	-8.927483e+000	-7.244321e+000
-7.160000000000061e+000	-8.927166e+000	-7.191410e+000
-7.140000000000061e+000	-8.926850e+000	-7.138496e+000
-7.120000000000061e+000	-8.926536e+000	-7.085581e+000
-7.100000000000062e+000	-8.926223e+000	-7.032665e+000
-7.080000000000062e+000	-8.925910e+000	-6.979746e+000
-7.060000000000063e+000	-8.925599e+000	-6.926827e+000
-7.040000000000063e+000	-8.925289e+000	-6.873906e+000
-7.020000000000064e+000	-8.924980e+000	-6.820983e+000
-7.000000000000064e+000	-8.924673e+000	-6.768059e+000
-6.980000000000064e+000	-8.924366e+000	-6.715134e+000
-6.960000000000065e+000	-8.924061e+000	-6.662207e+000
-6.940000000000065e+000	-8.923757e+000	-6.609278e+000
-6.920000000000066e+000	-8.923453e+000	-6.556348e+000
-6.900000000000066e+000	-8.923151e+000	-6.503417e+000
-6.880000000000067e+000	-8.922850e+000	-6.450484e+000
-6.860000000000067e+000	-8.922550e+000	-6.397550e+000
-6.840000000000067e+000	-8.922251e+000	-6.344615e+000
-6.820000000000068e+000	-8.921952e+000	-6.291678e+000
-6.800000000000068e+000	-8.921656e+000	-6.238739e+000
-6.780000000000069e+000	-8.921360e+000	-6.185800e+000
-6.760000000000069e+000	-8.921064e+000	-6.132859e+000
-6.740000000000070e+000	-8.920771e+000	-6.079917e+000
-6.720000000000070e+000	-8.920477e+000	-6.026974e+000
-6.700000000000070e+000	-8.920185e+000	-5.974029e+000
-6.680000000000071e+000	-8.919894e+000	-5.921083e+000
-6.660000000000071e+000	-8.919604e+000	-5.868135e+000
-6.640000000000072e+000	-8.919314e+000	-5.815187e+000
-6.620000000000072e+000	-8.919026e+000	-5.762237e+000
-6.600000000000073e+000	-8.918739e+000	-5.709286e+000
-6.580000000000073e+000	-8.918452e+000	-5.656333e+000
-6.560000000000073e+000	-8.918167e+000	-5.603380e+000
-6.540000000000074e+000	-8.917883e+000	-5.550425e+000
-6.520000000000074e+000	-8.917599e+000	-5.497469e+000
-6.500000000000075e+000	-8.917316e+000	-5.444512e+000
-6.480000000000075e+000	-8.917034e+000	-5.391553e+000
-6.460000000000076e+000	-8.916753e+000	-5.338594e+000
-6.440000000000076e+000	-8.916473e+000	-5.285633e+000
-6.420000000000076e+000	-8.916194e+000	-5.232671e+000
-6.400000000000077e+000	-8.915915e+000	-5.179708e+000
-6.380000000000077e+000	-8.915638e+000	-5.126744e+000
-6.360000000000078e+000	-8.915361e+000	-5.073779e+000
-6.340000000000078e+000	-8.915085e+000	-5.020813e+000
-6.320000000000078e+000	-8.914810e+000	-4.967845e+000
-6.300000000000079e+000	-8.914536e+000	-4.914876e+000
-6.280000000000079e+000	-8.914263e+000	-4.861907e+000
-6.260000000000080e+000	-8.913990e+000	-4.808936e+000
-6.240000000000080e+000	-8.913718e+000	-4.755964e+000
-6.220000000000081e+000	-8.913447e+000	-4.702991e+000
-6.200000000000081e+000	-8.913177e+000	-4.650017e+000
-6.180000000000081e+000	-8.912908e+000	-4.597042e+000
-6.160000000000082e+000	-8.912640e+000	-4.544065e+000
-6.140000000000082e+000	-8.912372e+000	-4.491088e+000
-6.120000000000083e+000	-8.912105e+000	-4.438110e+000
-6.100000000000083e+000	-8.911839e+000	-4.385131e+000
-6.080000000000084e+000	-8.911572e+000	-4.332150e+000
-6.060000000000084e+000	-8.911308e+000	-4.279169e+000
-6.040000000000084e+000	-8.911044e+000	-4.226187e+000
-6.020000000000085e+000	-8.910781e+000	-4.173203e+000
-6.000000000000085e+000	-8.910519e+000	-4.120219e+000
-5.980000000000086e+000	-8.910256e+000	-4.067234e+000
-5.960000000000086e+000	-8.909996e+000	-4.014248e+000
-5.940000000000087e+000	-8.909736e+000	-3.961261e+000
-5.920000000000087e+000	-8.909476e+000	-3.908272e+000
-5.900000000000087e+000	-8.909217e+000	-3.855283e+000
-5.880000000000088e+000	-8.908959e+000	-3.802293e+000
-5.860000000000088e+000	-8.908702e+000	-3.749302e+000
-5.840000000000089e+000	-8.908445e+000	-3.696310e+000
-5.820000000000089e+000	-8.908189e+000	-3.643317e+000
-5.800000000000090e+000	-8.907933e+000	-3.590323e+000
-5.780000000000090e+000	-8.907679e+000	-3.537329e+000
-5.760000000000090e+000	-8.907425e+000	-3.484333e+000
-5.740000000000091e+000	-8.907172e+000	-3.431336e+000
-5.720000000000091e+000	-8.906919e+000	-3.378339e+000
-5.700000000000092e+000	-8.906668e+000	-3.325341e+000
-5.680000000000092e+000	-8.906416e+000	-3.272341e+000
-5.660000000000093e+000	-8.906166e+000	-3.219341e+000
-5.640000000000093e+000	-8.905915e+000	-3.166340e+000
-5.620000000000093e+000	-8.905666e+000	-3.113338e+000
-5.600000000000094e+000	-8.905417e+000	-3.060335e+000
-5.580000000000094e+000	-8.905169e+000	-3.007332e+000
-5.560000000000095e+000	-8.904922e+000	-2.954327e+000
-5.540000000000095e+000	-8.904675e+000	-2.901322e+000
-5.520000000000096e+000	-8.904429e+000	-2.848316e+000
-5.500000000000096e+000	-8.904184e+000	-2.795309e+000
-5.480000000000096e+000	-8.903939e+000	-2.742301e+000
-5.460000000000097e+000	-8.903695e+000	-2.689292e+000
-5.440000000000097e+000	-8.903452e+000	-2.636283e+000
-5.420000000000098e+000	-8.903209e+000	-2.583273e+000
-5.400000000000098e+000	-8.902966e+000	-2.530262e+000
-5.380000000000099e+000	-8.902725e+000	-2.477250e+000
-5.360000000000099e+000	-8.902484e+000	-2.424237e+000
-5.340000000000099e+000	-8.902244e+000	-2.371223e+000
-5.320000000000100e+000	-8.902003e+000	-2.318209e+000
-5.300000000000100e+000	-8.901764e+000	-2.265194e+000
-5.280000000000101e+000	-8.901525e+000	-2.212178e+000
-5.260000000000101e+000	-8.901287e+000	-2.159161e+000
-5.240000000000102e+000	-8.901050e+000	-2.106144e+000
-5.220000000000102e+000	-8.900813e+000	-2.053125e+000
-5.200000000000102e+000	-8.900577e+000	-2.000107e+000
-5.180000000000103e+000	-8.900340e+000	-1.947087e+000
-5.160000000000103e+000	-8.900105e+000	-1.894066e+000
-5.140000000000104e+000	-8.899871e+000	-1.841045e+000
-5.120000000000104e+000	-8.899636e+000	-1.788023e+000
-5.100000000000104e+000	-8.899403e+000	-1.735000e+000
-5.080000000000105e+000	-8.899170e+000	-1.681977e+000
-5.060000000000105e+000	-8.898937e+000	-1.628952e+000
-5.040000000000106e+000	-8.898705e+000	-1.575927e+000
-5.020000000000106e+000	-8.898474e+000	-1.522902e+000
-5.000000000000107e+000	-8.898243e+000	-1.469875e+000
-4.980000000000107e+000	-8.898013e+000	-1.416848e+000
-4.960000000000107e+000	-8.897783e+000	-1.363821e+000
-4.940000000000108e+000	-8.897553e+000	-1.310792e+000
-4.920000000000108e+000	-8.897325e+000	-1.257764e+000
-4.900000000000109e+000	-8.897096e+000	-1.204734e+000
-4.880000000000109e+000	-8.896867e+000	-1.151705e+000
-4.860000000000110e+000	-8.896639e+000	-1.098675e+000
-4.840000000000110e+000	-8.896409e+000	-1.045647e+000
-4.820000000000110e+000	-8.896179e+000	-9.926198e-001
-4.800000000000111e+000	-8.895947e+000	-9.395959e-001
-4.780000000000111e+000	-8.895709e+000	-8.865777e-001
-4.760000000000112e+000	-8.895465e+000	-8.335694e-001
-4.740000000000112e+000	-8.895207e+000	-7.805780e-001
-4.720000000000113e+000	-8.894930e+000	-7.276149e-001
-4.700000000000113e+000	-8.894616e+000	-6.746989e-001
-4.680000000000113e+000	-8.894245e+000	-6.218599e-001
-4.660000000000114e+000	-8.893782e+000	-5.691449e-001
-4.640000000000114e+000	-8.893171e+000	-5.166249e-001
-4.620000000000115e+000	-8.892340e+000	-4.644021e-001
-4.600000000000115e+000	-8.891182e+000	-4.126138e-001
-4.580000000000116e+000	-8.889570e+000	-3.614330e-001
-4.560000000000116e+000	-8.887349e+000	-3.110652e-001
-4.540000000000116e+000	-8.884338e+000	-2.617524e-001
-4.520000000000117e+000	-8.880312e+000	-2.137946e-001
-4.500000000000117e+000	-8.874963e+000	-1.676015e-001
-4.480000000000118e+000	-8.867822e+000	-1.237982e-001
-4.460000000000118e+000	-8.857987e+000	-8.358666e-002
-4.440000000000119e+000	-8.844179e+000	-4.867220e-002
-4.420000000000119e+000	-8.823951e+000	-2.231566e-002
-4.400000000000119e+000	-8.795063e+000	-7.501664e-003
-4.380000000000120e+000	-8.759087e+000	-2.137310e-003
-4.360000000000120e+000	-8.720111e+000	-7.703867e-004
-4.340000000000121e+000	-8.680337e+000	-4.681512e-004
-4.320000000000121e+000	-8.640386e+000	-4.028514e-004
-4.300000000000122e+000	-8.600396e+000	-3.879466e-004
-4.280000000000122e+000	-8.560398e+000	-3.836361e-004
-4.260000000000122e+000	-8.520399e+000	-3.815495e-004
-4.240000000000123e+000	-8.480399e+000	-3.799295e-004
-4.220000000000123e+000	-8.440400e+000	-3.784075e-004
-4.200000000000124e+000	-8.400400e+000	-3.769063e-004
-4.180000000000124e+000	-8.360400e+000	-3.754097e-004
-4.160000000000125e+000	-8.320401e+000	-3.739141e-004
-4.140000000000125e+000	-8.280401e+000	-3.724189e-004
-4.120000000000125e+000	-8.240401e+000	-3.709240e-004
-4.100000000000126e+000	-8.200402e+000	-3.694292e-004
-4.080000000000126e+000	-8.160402e+000	-3.679346e-004
-4.060000000000127e+000	-8.120402e+000	-3.664401e-004
-4.040000000000127e+000	-8.080403e+000	-3.649458e-004
-4.020000000000128e+000	-8.040403e+000	-3.634515e-004
-4.000000000000128e+000	-8.000403e+000	-3.619574e-004
-3.980000000000128e+000	-7.960404e+000	-3.604633e-004
-3.960000000000128e+000	-7.920404e+000	-3.589693e-004
-3.940000000000128e+000	-7.880405e+000	-3.574753e-004
-3.920000000000128e+000	-7.840405e+000	-3.559814e-004
-3.900000000000128e+000	-7.800406e+000	-3.544875e-004
-3.880000000000128e+000	-7.760406e+000	-3.529935e-004
-3.860000000000128e+000	-7.720406e+000	-3.514996e-004
-3.840000000000128e+000	-7.680407e+000	-3.500056e-004
-3.820000000000128e+000	-7.640407e+000	-3.485115e-004
-3.800000000000128e+000	-7.600407e+000	-3.470174e-004
-3.780000000000128e+000	-7.560408e+000	-3.455232e-004
-3.760000000000128e+000	-7.520408e+000	-3.440289e-004
-3.740000000000128e+000	-7.480408e+000	-3.425344e-004
-3.720000000000128e+000	-7.440409e+000	-3.410398e-004
-3.700000000000128e+000	-7.400409e+000	-3.395450e-004
-3.680000000000128e+000	-7.360409e+000	-3.380501e-004
-3.660000000000128e+000	-7.320410e+000	-3.365549e-004
-3.640000000000128e+000	-7.280410e+000	-3.350596e-004
-3.620000000000128e+000	-7.240410e+000	-3.335640e-004
-3.600000000000128e+000	-7.200411e+000	-3.320681e-004
-3.580000000000128e+000	-7.160411e+000	-3.305720e-004
-3.560000000000128e+000	-7.120411e+000	-3.290755e-004
-3.540000000000128e+000	-7.080412e+000	-3.275788e-004
-3.520000000000128e+000	-7.040412e+000	-3.260816e-004
-3.500000000000128e+000	-7.000412e+000	-3.245842e-004
-3.480000000000127e+000	-6.960413e+000	-3.230863e-004
-3.460000000000127e+000	-6.920413e+000	-3.215881e-004
-3.440000000000127e+000	-6.880414e+000	-3.200894e-004
-3.420000000000127e+000	-6.840414e+000	-3.185902e-004
-3.400000000000127e+000	-6.800415e+000	-3.170906e-004
-3.380000000000127e+000	-6.760415e+000	-3.155905e-004
-3.360000000000127e+000	-6.720415e+000	-3.140899e-004
-3.340000000000127e+000	-6.680416e+000	-3.125887e-004
-3.320000000000127e+000	-6.640416e+000	-3.110870e-004
-3.300000000000127e+000	-6.600416e+000	-3.095847e-004
-3.280000000000127e+000	-6.560417e+000	-3.080817e-004
-3.260000000000127e+000	-6.520417e+000	-3.065781e-004
-3.240000000000127e+000	-6.480417e+000	-3.050739e-004
-3.220000000000127e+000	-6.440418e+000	-3.035689e-004
-3.200000000000127e+000	-6.400418e+000	-3.020633e-004
-3.180000000000127e+000	-6.360419e+000	-3.005569e-004
-3.160000000000127e+000	-6.320419e+000	-2.990497e-004
-3.140000000000127e+000	-6.280419e+000	-2.975417e-004
-3.120000000000127e+000	-6.240420e+000	-2.960329e-004
-3.100000000000127e+000	-6.200420e+000	-2.945232e-004
-3.080000000000127e+000	-6.160420e+000	-2.930126e-004
-3.060000000000127e+000	-6.120421e+000	-2.915011e-004
-3.040000000000127e+000	-6.080421e+000	-2.899886e-004
-3.020000000000127e+000	-6.040421e+000	-2.884752e-004
-3.000000000000127e+000	-6.000422e+000	-2.869608e-004
-2.980000000000127e+000	-5.960423e+000	-2.854453e-004
-2.960000000000127e+000	-5.920423e+000	-2.839287e-004
-2.940000000000127e+000	-5.880423e+000	-2.824110e-004
-2.920000000000127e+000	-5.840424e+000	-2.808922e-004
-2.900000000000127e+000	-5.800424e+000	-2.793721e-004
-2.880000000000127e+000	-5.760425e+000	-2.778509e-004
-2.860000000000127e+000	-5.720425e+000	-2.763284e-004
-2.840000000000127e+000	-5.680425e+000	-2.748046e-004
-2.820000000000127e+000	-5.640426e+000	-2.732795e-004
-2.800000000000127e+000	-5.600426e+000	-2.717529e-004
-2.780000000000127e+000	-5.560426e+000	-2.702250e-004
-2.760000000000127e+000	-5.520427e+000	-2.686957e-004
