time	V(vin)	V(voutoa)	V(voutr)
0.000000000000000e+000	0.000000e+000	4.883348e-004	0.000000e+000
9.765625114122045e-011	7.363108e-007	4.883363e-004	2.025998e-021
1.953125022824409e-010	1.472622e-006	4.883386e-004	9.454657e-021
7.812500091297636e-010	5.890486e-006	4.883815e-004	1.620798e-019
1.495535731762691e-008	1.127607e-004	4.889053e-004	5.938882e-017
2.912946462612405e-008	2.196310e-004	4.999348e-004	2.253244e-016
4.330357193462120e-008	3.265012e-004	5.214699e-004	4.979688e-016
5.747767924311834e-008	4.333715e-004	5.535109e-004	8.773220e-016
7.165178655161549e-008	5.402417e-004	5.960575e-004	1.363384e-015
8.582589386011263e-008	6.471119e-004	6.491099e-004	1.956155e-015
1.000000011686097e-007	7.539822e-004	7.126679e-004	2.655635e-015
2.000000023372195e-007	1.507964e-003	1.416420e-003	1.062397e-014
4.000000046744390e-007	3.015926e-003	3.306648e-003	4.251873e-014
8.000000093488779e-007	6.031833e-003	7.280128e-003	1.589945e-013
1.334249576767422e-006	1.005989e-002	1.256648e-002	4.415533e-013
2.402748711604509e-006	1.811561e-002	2.347857e-002	1.502452e-012
4.539746981278685e-006	3.422425e-002	4.583857e-002	4.927504e-012
5.956395000494379e-006	4.489968e-002	5.717181e-002	8.177961e-012
6.729028397556920e-006	5.072057e-002	5.691044e-002	1.047134e-011
7.235888474860654e-006	5.453852e-002	5.536096e-002	1.223675e-011
7.845803189257647e-006	5.913201e-002	5.812243e-002	1.460041e-011
8.275711954551465e-006	6.236928e-002	6.161974e-002	1.642472e-011
8.755889704274342e-006	6.598455e-002	6.511317e-002	1.865875e-011
1.195240190713440e-005	9.005139e-002	8.913160e-002	-1.123142e-011
1.514891410999446e-005	1.140601e-001	1.130925e-001	3.195145e-011
1.834542631285452e-005	1.380107e-001	1.369960e-001	1.482074e-010
2.154193851571458e-005	1.619032e-001	1.608419e-001	3.375363e-010
2.473845071857463e-005	1.857375e-001	1.846303e-001	5.999383e-010
2.793496292143469e-005	2.095137e-001	2.083613e-001	9.354134e-010
3.113147512429474e-005	2.332318e-001	2.320347e-001	1.343961e-009
5.066272512429475e-005	3.755694e-001	3.742059e-001	2.154016e-008
7.019397512429474e-005	5.122581e-001	5.107859e-001	2.907169e-007
8.972522512429473e-005	6.412420e-001	6.396807e-001	3.348317e-006
9.949085012429473e-005	7.022330e-001	7.006342e-001	1.059928e-005
1.092564751242947e-004	7.605809e-001	7.589492e-001	3.182572e-005
1.190221001242947e-004	8.160662e-001	8.144062e-001	9.022139e-005
1.287877251242947e-004	8.684800e-001	8.667961e-001	2.403268e-004
1.385533501242947e-004	9.176251e-001	9.159219e-001	5.978770e-004
1.483189751242948e-004	9.633164e-001	9.615988e-001	1.378208e-003
1.580846001242948e-004	1.005382e+000	1.003654e+000	2.916052e-003
1.678502251242948e-004	1.043664e+000	1.041931e+000	5.610722e-003
1.776158501242948e-004	1.078017e+000	1.076284e+000	9.759771e-003
1.873814751242948e-004	1.108313e+000	1.106584e+000	1.535228e-002
1.971471001242948e-004	1.134438e+000	1.132718e+000	2.198268e-002
2.069127251242948e-004	1.156293e+000	1.154586e+000	2.896034e-002
2.166783501242948e-004	1.173795e+000	1.172107e+000	3.551718e-002
2.264439751242948e-004	1.186880e+000	1.185214e+000	4.096557e-002
2.362096001242948e-004	1.195498e+000	1.193859e+000	4.479523e-002
2.459752251242948e-004	1.199616e+000	1.198008e+000	4.669666e-002
2.557408501242948e-004	1.199219e+000	1.197647e+000	4.651443e-002
2.655064751242948e-004	1.194309e+000	1.192776e+000	4.425149e-002
2.752721001242948e-004	1.184903e+000	1.183414e+000	4.009086e-002
2.850377251242948e-004	1.171038e+000	1.169596e+000	3.440348e-002
2.948033501242949e-004	1.152765e+000	1.151374e+000	2.773500e-002
3.045689751242949e-004	1.130154e+000	1.128817e+000	2.077061e-002
3.143346001242949e-004	1.103288e+000	1.102009e+000	1.427809e-002
3.241002251242949e-004	1.072271e+000	1.071052e+000	8.920664e-003
3.338658501242949e-004	1.037217e+000	1.036062e+000	5.037365e-003
3.436314751242949e-004	9.982597e-001	9.971699e-001	2.573261e-003
3.533971001242949e-004	9.555451e-001	9.545233e-001	1.197158e-003
3.631627251242949e-004	9.092340e-001	9.082820e-001	5.120914e-004
3.729283501242949e-004	8.595009e-001	8.586203e-001	2.032812e-004
3.826939751242949e-004	8.065327e-001	8.057250e-001	7.545407e-005
3.924596001242949e-004	7.505289e-001	7.497950e-001	2.634332e-005
4.022252251242949e-004	6.917003e-001	6.910409e-001	8.692647e-006
4.119908501242950e-004	6.302683e-001	6.296834e-001	2.722199e-006
4.315221001242950e-004	5.005278e-001	5.000910e-001	2.325603e-007
4.510533501242950e-004	3.632590e-001	3.629642e-001	1.702165e-008
4.705846001242950e-004	2.205264e-001	2.203558e-001	1.091575e-009
4.803502251242950e-004	1.477797e-001	1.476476e-001	2.559994e-010
4.901158501242950e-004	7.447684e-002	7.420379e-002	5.093376e-011
4.998814751242950e-004	8.936565e-004	-4.227298e-003	6.222025e-012
5.051495027351048e-004	-3.881956e-002	-2.334085e-002	7.486230e-012
5.074719970609269e-004	-5.631684e-002	1.407143e-002	1.372149e-011
5.091068560242738e-004	-6.862661e-002	5.586468e-002	2.075292e-011
5.103177274600176e-004	-7.773935e-002	6.961959e-002	2.752024e-011
5.114882587091323e-004	-8.654423e-002	7.591144e-002	3.557187e-011
5.126992850109371e-004	-9.564878e-002	8.543555e-002	4.571726e-011
5.172128488146593e-004	-1.295290e-001	1.178932e-001	1.054745e-010
5.192668930002517e-004	-1.449144e-001	1.305673e-001	1.501352e-010
5.219138296354693e-004	-1.647048e-001	1.413544e-001	2.265092e-010
5.233942145978596e-004	-1.757537e-001	1.408948e-001	2.827727e-010
5.249307520327309e-004	-1.872057e-001	1.331968e-001	3.584048e-010
5.266589505870289e-004	-2.000651e-001	1.198815e-001	4.669711e-010
5.286387232003944e-004	-2.147675e-001	1.019683e-001	6.244450e-010
5.300504657405854e-004	-2.252313e-001	8.839370e-002	7.612183e-010
5.306470272293713e-004	-2.296478e-001	8.320389e-002	8.279380e-010
5.308894036343936e-004	-2.314412e-001	8.302255e-002	8.573438e-010
5.310145817672745e-004	-2.323672e-001	8.626677e-002	8.731197e-010
5.311375864936036e-004	-2.332770e-001	9.502245e-002	8.889606e-010
5.312592099686054e-004	-2.341765e-001	1.093203e-001	9.049078e-010
5.313965899195778e-004	-2.351923e-001	1.293512e-001	9.232751e-010
5.315633488024945e-004	-2.364251e-001	1.538255e-001	9.460759e-010
5.317691106965903e-004	-2.379459e-001	1.790543e-001	9.750272e-010
5.320646591639385e-004	-2.401296e-001	2.040303e-001	1.018205e-009
5.324525062873729e-004	-2.429941e-001	2.229947e-001	1.077508e-009
5.328443462746293e-004	-2.458865e-001	2.327179e-001	1.140860e-009
5.333383140799343e-004	-2.495308e-001	2.390964e-001	1.226345e-009
5.349518726555094e-004	-2.614177e-001	2.522112e-001	1.558195e-009
5.421067421721890e-004	-3.140300e-001	3.050742e-001	-1.801137e-007
5.492616116888686e-004	-3.657556e-001	3.570289e-001	-2.111698e-007
5.564164812055483e-004	-4.165945e-001	4.080755e-001	-9.161027e-008
5.635713507222279e-004	-4.665466e-001	4.582139e-001	1.785650e-007
5.707262202389075e-004	-5.156121e-001	5.074441e-001	5.993559e-007
5.778810897555872e-004	-5.637909e-001	5.557661e-001	1.170763e-006
5.850359592722668e-004	-6.110830e-001	6.031799e-001	1.892785e-006
5.948015842722668e-004	-6.732622e-001	6.655960e-001	6.135474e-006
6.045672092722668e-004	-7.329074e-001	7.255005e-001	1.890401e-005
6.143328342722668e-004	-7.897940e-001	7.826702e-001	5.511319e-005
6.240984592722668e-004	-8.437080e-001	8.368937e-001	1.513608e-004
6.338640842722668e-004	-8.944466e-001	8.879673e-001	3.894513e-004
6.436297092722668e-004	-9.418185e-001	9.357008e-001	9.322502e-004
6.533953342722669e-004	-9.856458e-001	9.799148e-001	2.057895e-003
6.631609592722669e-004	-1.025763e+000	1.020444e+000	4.148610e-003
6.729265842722669e-004	-1.062020e+000	1.057136e+000	7.577451e-003
6.826922092722669e-004	-1.094280e+000	1.089853e+000	1.250355e-002
6.924578342722669e-004	-1.122420e+000	1.118471e+000	1.870872e-002
7.119890842722669e-004	-1.165939e+000	1.162999e+000	3.246756e-002
7.217547092722669e-004	-1.181152e+000	1.178740e+000	3.851774e-002
7.315203342722669e-004	-1.191920e+000	1.190047e+000	4.317127e-002
7.412859592722669e-004	-1.198202e+000	1.196877e+000	4.603378e-002
7.510515842722669e-004	-1.199974e+000	1.199205e+000	4.686642e-002
7.608172092722670e-004	-1.197229e+000	1.197022e+000	4.559037e-002
7.705828342722670e-004	-1.189979e+000	1.190334e+000	4.230699e-002
7.803484592722670e-004	-1.178250e+000	1.179166e+000	3.730006e-002
7.901140842722670e-004	-1.162086e+000	1.163561e+000	3.102751e-002
8.096453342722670e-004	-1.116713e+000	1.119289e+000	1.728907e-002
8.194109592722670e-004	-1.087676e+000	1.090787e+000	1.132083e-002
8.291765842722670e-004	-1.054545e+000	1.058180e+000	6.712844e-003
8.389422092722670e-004	-1.017445e+000	1.021590e+000	3.596306e-003
8.487078342722670e-004	-9.765149e-001	9.811543e-001	1.748028e-003
8.584734592722670e-004	-9.319099e-001	9.370267e-001	7.775409e-004
8.682390842722670e-004	-8.837973e-001	8.893737e-001	3.195896e-004
8.780047092722671e-004	-8.323584e-001	8.383754e-001	1.224118e-004
8.877703342722671e-004	-7.777866e-001	7.842253e-001	4.398425e-005
8.975359592722671e-004	-7.202874e-001	7.271288e-001	1.490442e-005
9.073015842722671e-004	-6.600773e-001	6.673034e-001	4.784592e-006
9.170672092722671e-004	-5.973827e-001	6.049785e-001	1.461013e-006
9.365984592722671e-004	-4.654928e-001	4.738059e-001	1.194792e-007
9.561297092722671e-004	-3.266014e-001	3.357528e-001	8.443118e-009
9.658953342722671e-004	-2.551797e-001	2.652372e-001	2.139133e-009
9.756609592722671e-004	-1.827976e-001	1.981855e-001	4.007647e-010
9.787106948500484e-004	-1.600393e-001	1.857436e-001	2.049650e-010
9.797199352365267e-004	-1.524946e-001	1.888863e-001	1.718384e-010
9.812886521319731e-004	-1.407555e-001	2.043173e-001	1.329724e-010
9.820047071284260e-004	-1.353921e-001	2.120736e-001	1.187286e-010
9.827207621248789e-004	-1.300263e-001	2.196874e-001	1.055130e-010
9.834368171213318e-004	-1.246580e-001	2.271587e-001	9.332568e-011
9.841528721177845e-004	-1.192872e-001	2.344875e-001	8.216658e-011
9.848689271142375e-004	-1.139140e-001	2.416738e-001	7.203570e-011
9.855849821106904e-004	-1.085384e-001	2.487175e-001	6.293305e-011
9.863010371071433e-004	-1.031603e-001	2.556188e-001	5.485863e-011
9.865954849650870e-004	-1.009482e-001	2.576031e-001	5.184314e-011
9.868991786155638e-004	-9.866636e-002	2.553747e-001	4.886073e-011
9.871230475533791e-004	-9.698404e-002	2.411913e-001	4.674556e-011
9.873207291994442e-004	-9.549836e-002	2.117268e-001	4.493897e-011
9.874695248432023e-004	-9.437998e-002	1.825405e-001	4.361626e-011
9.876256309341786e-004	-9.320657e-002	1.553966e-001	4.226365e-011
9.877936796940550e-004	-9.194329e-002	1.349850e-001	4.084433e-011
9.879905702405007e-004	-9.046306e-002	1.203513e-001	3.923518e-011
9.883300610768803e-004	-8.791044e-002	1.068277e-001	3.658091e-011
9.887841821549575e-004	-8.449530e-002	9.777790e-002	3.323107e-011
9.893055718213600e-004	-8.057342e-002	9.215517e-002	2.969423e-011
9.901581098314585e-004	-7.415882e-002	8.529040e-002	2.457009e-011
9.939602333833896e-004	-4.552784e-002	5.684492e-002	9.759378e-012
9.980431455288760e-004	-1.475396e-002	3.108308e-002	2.470439e-012
1.001583229989190e-003	1.193708e-002	2.940163e-002	2.690358e-012
1.006858658893198e-003	5.169706e-002	5.721905e-002	1.213751e-011
1.008519928679117e-003	6.420807e-002	6.254062e-002	1.773522e-011
1.009294544925838e-003	7.003939e-002	6.821216e-002	2.137306e-011
1.009680307172382e-003	7.294280e-002	7.320157e-002	2.343481e-011
1.010032790571555e-003	7.559537e-002	7.525235e-002	2.546860e-011
1.010407496433445e-003	7.841476e-002	7.723683e-002	2.775432e-011
1.010676035143421e-003	8.043505e-002	7.970563e-002	2.947812e-011
1.010956904357771e-003	8.254787e-002	8.163360e-002	3.136736e-011
1.011215590581108e-003	8.449358e-002	8.349422e-002	3.318489e-011
1.011513300546990e-003	8.673255e-002	8.584706e-002	3.537874e-011
1.011892342656318e-003	8.958273e-002	8.863680e-002	3.832774e-011
1.014767244041057e-003	1.111950e-001	1.102339e-001	1.670529e-011
1.017642145425796e-003	1.327552e-001	1.317724e-001	7.184970e-011
1.020517046810535e-003	1.542633e-001	1.532522e-001	2.037610e-010
1.023391948195274e-003	1.757193e-001	1.746732e-001	4.124391e-010
1.026266849580013e-003	1.971233e-001	1.960356e-001	6.978841e-010
1.029141750964752e-003	2.184752e-001	2.173393e-001	1.060096e-009
1.032016652349491e-003	2.397750e-001	2.385844e-001	1.499075e-009
1.051547902349491e-003	3.819024e-001	3.805336e-001	2.430835e-008
1.071079152349491e-003	5.182856e-001	5.168091e-001	3.259690e-007
1.090610402349491e-003	6.468733e-001	6.453086e-001	3.726862e-006
1.100376027349491e-003	7.076340e-001	7.060322e-001	1.174072e-005
1.110141652349491e-003	7.657314e-001	7.640970e-001	3.506531e-005
1.119907277349491e-003	8.209468e-001	8.192843e-001	9.886119e-005
1.129672902349491e-003	8.730722e-001	8.713863e-001	2.617869e-004
1.139438527349491e-003	9.219117e-001	9.202070e-001	6.470089e-004
1.149204152349491e-003	9.672812e-001	9.655625e-001	1.480525e-003
1.158969777349491e-003	1.009010e+000	1.007282e+000	3.106787e-003
1.168735402349491e-003	1.046941e+000	1.045208e+000	5.924282e-003
1.178501027349491e-003	1.080932e+000	1.079199e+000	1.021051e-002
1.188266652349491e-003	1.110855e+000	1.109126e+000	1.591939e-002
1.198032277349491e-003	1.136596e+000	1.134877e+000	2.261242e-002
1.207797902349491e-003	1.158060e+000	1.156354e+000	2.958317e-002
1.217563527349491e-003	1.175164e+000	1.173478e+000	3.606613e-002
1.227329152349491e-003	1.187846e+000	1.186182e+000	4.138703e-002
1.237094777349491e-003	1.196057e+000	1.194421e+000	4.505202e-002
1.246860402349491e-003	1.199767e+000	1.198162e+000	4.676749e-002
1.256626027349491e-003	1.198960e+000	1.197391e+000	4.639352e-002
1.266391652349491e-003	1.193641e+000	1.192112e+000	4.394845e-002
1.276157277349491e-003	1.183830e+000	1.182345e+000	3.963093e-002
1.285922902349491e-003	1.169562e+000	1.168125e+000	3.382859e-002
1.295688527349491e-003	1.150893e+000	1.149507e+000	2.710328e-002
1.305454152349491e-003	1.127892e+000	1.126561e+000	2.015104e-002
1.315219777349491e-003	1.100646e+000	1.099373e+000	1.373785e-002
1.324985402349491e-003	1.069258e+000	1.068045e+000	8.506007e-003
1.334751027349491e-003	1.033845e+000	1.032695e+000	4.759120e-003
1.344516652349491e-003	9.945405e-001	9.934568e-001	2.409774e-003
1.354282277349491e-003	9.514931e-001	9.504775e-001	1.112145e-003
1.364047902349491e-003	9.048645e-001	9.039189e-001	4.723451e-004
1.373813527349491e-003	8.548301e-001	8.539562e-001	1.863128e-004
1.383579152349491e-003	8.015784e-001	8.007774e-001	6.875752e-005
1.393344777349491e-003	7.453097e-001	7.445825e-001	2.387847e-005
1.403110402349491e-003	6.862358e-001	6.855832e-001	7.840922e-006
1.412876027349491e-003	6.245791e-001	6.240011e-001	2.444487e-006
1.432407277349491e-003	4.944543e-001	4.940243e-001	2.072144e-007
1.451938527349491e-003	3.568924e-001	3.566039e-001	1.507185e-008
1.471469777349491e-003	2.139626e-001	2.137968e-001	9.601862e-010
1.481235402349491e-003	1.411542e-001	1.410242e-001	2.232373e-010
1.491001027349491e-003	6.781451e-002	6.712550e-002	4.336735e-011
1.500766652349491e-003	-5.780400e-003	1.676326e-002	1.214138e-011
1.510532277349491e-003	-7.935355e-002	2.164605e-002	2.897326e-011
1.510784946648419e-003	-8.125436e-002	2.926000e-002	3.021526e-011
1.511290285246273e-003	-8.505537e-002	5.661420e-002	3.375902e-011
1.511695212559286e-003	-8.810049e-002	7.254951e-002	3.677603e-011
1.512077022470632e-003	-9.097124e-002	7.958956e-002	3.981812e-011
1.512519129580786e-003	-9.429470e-002	8.361036e-002	4.360423e-011
1.514047038593510e-003	-1.057747e-001	9.530811e-002	5.910444e-011
1.515473996424642e-003	-1.164875e-001	1.056375e-001	7.765107e-011
1.517551401960429e-003	-1.320664e-001	1.197139e-001	1.150286e-010
1.521312237478229e-003	-1.602107e-001	1.401655e-001	2.079030e-010
1.522864528131721e-003	-1.718021e-001	1.425195e-001	2.602376e-010
1.524202960682905e-003	-1.817835e-001	1.376566e-001	3.203670e-010
1.525976807287425e-003	-1.949921e-001	1.254327e-001	4.214540e-010
1.527894960895563e-003	-2.092479e-001	1.088871e-001	5.618531e-010
1.529773623593048e-003	-2.231807e-001	9.105571e-002	7.326204e-010
1.530487002983074e-003	-2.284634e-001	8.428892e-002	8.090800e-010
1.530802002325669e-003	-2.307945e-001	8.217478e-002	8.465001e-010
1.530936819151303e-003	-2.317920e-001	8.299861e-002	8.632390e-010
1.531040277056067e-003	-2.325573e-001	8.674185e-002	8.763867e-010
1.531147073480351e-003	-2.333472e-001	9.518319e-002	8.901828e-010
1.531264233482783e-003	-2.342136e-001	1.093411e-001	9.055725e-010
1.531407369388187e-003	-2.352720e-001	1.303102e-001	9.247246e-010
1.531560839323797e-003	-2.364066e-001	1.527017e-001	9.457390e-010
1.531796577496730e-003	-2.381489e-001	1.812994e-001	9.789749e-010
1.532085587129671e-003	-2.402842e-001	2.052529e-001	1.021308e-009
1.532479583027136e-003	-2.431940e-001	2.237179e-001	1.081796e-009
1.532883258175757e-003	-2.461737e-001	2.333385e-001	1.147327e-009
1.533366104978717e-003	-2.497357e-001	2.393739e-001	1.231419e-009
1.535002271913382e-003	-2.617886e-001	2.525915e-001	1.571788e-009
1.548213383416877e-003	-3.579858e-001	3.492770e-001	1.450455e-008
1.567744633416877e-003	-4.954977e-001	4.872056e-001	2.114489e-007
1.587275883416877e-003	-6.255569e-001	6.177063e-001	2.488992e-006
1.597041508416877e-003	-6.871752e-001	6.795663e-001	7.978214e-006
1.606807133416877e-003	-7.462071e-001	7.388631e-001	2.428367e-005
1.616572758416877e-003	-8.024304e-001	7.953752e-001	6.986545e-005
1.626338383416877e-003	-8.556336e-001	8.488938e-001	1.891281e-004
1.636104008416877e-003	-9.056163e-001	8.992177e-001	4.789607e-004
1.645869633416877e-003	-9.521906e-001	9.461594e-001	1.126348e-003
1.655635258416877e-003	-9.951810e-001	9.895424e-001	2.437206e-003
1.665400883416877e-003	-1.034426e+000	1.029204e+000	4.806037e-003
1.675166508416877e-003	-1.069777e+000	1.064996e+000	8.576281e-003
1.684932133416877e-003	-1.101102e+000	1.096783e+000	1.382987e-002
1.694697758416877e-003	-1.128283e+000	1.124446e+000	2.025705e-002
1.704463383416877e-003	-1.151217e+000	1.147881e+000	2.722027e-002
1.714229008416877e-003	-1.169818e+000	1.166998e+000	3.395191e-002
1.723994633416877e-003	-1.184017e+000	1.181727e+000	3.973069e-002
1.733760258416877e-003	-1.193758e+000	1.192010e+000	4.400145e-002
1.743525883416877e-003	-1.199007e+000	1.197810e+000	4.641047e-002
1.753291508416877e-003	-1.199743e+000	1.199103e+000	4.675907e-002
1.763057133416877e-003	-1.195964e+000	1.195885e+000	4.500753e-002
1.772822758416877e-003	-1.187683e+000	1.188167e+000	4.129605e-002
1.782588383416877e-003	-1.174932e+000	1.175977e+000	3.594969e-002
1.792354008416877e-003	-1.157759e+000	1.159362e+000	2.946860e-002
1.802119633416877e-003	-1.136228e+000	1.138384e+000	2.250418e-002
1.811885258416877e-003	-1.110421e+000	1.113120e+000	1.582147e-002
1.821650883416877e-003	-1.080434e+000	1.083667e+000	1.013230e-002
1.831416508416877e-003	-1.046381e+000	1.050134e+000	5.869599e-003
1.841182133416877e-003	-1.008390e+000	1.012649e+000	3.073361e-003
1.850947758416877e-003	-9.666029e-001	9.713533e-001	1.462514e-003
1.860713383416877e-003	-9.211780e-001	9.264019e-001	6.383274e-004
1.870479008416877e-003	-8.722861e-001	8.779652e-001	2.579827e-004
1.880244633416877e-003	-8.201110e-001	8.262264e-001	9.732529e-005
1.890010258416877e-003	-7.648492e-001	7.713819e-001	3.448836e-005
1.899775883416877e-003	-7.067087e-001	7.136399e-001	1.153823e-005
1.909541508416877e-003	-6.459083e-001	6.532205e-001	3.660644e-006
1.929072758416877e-003	-5.172523e-001	5.252892e-001	3.195084e-007
1.948604008416877e-003	-3.808164e-001	3.895998e-001	2.380207e-008
1.968135258416877e-003	-2.386526e-001	2.495128e-001	1.553287e-009
1.977900883416877e-003	-1.660885e-001	1.904885e-001	2.687335e-010
1.979987237347115e-003	-1.504954e-001	1.934721e-001	1.681608e-010
1.982068606401600e-003	-1.349137e-001	2.125667e-001	1.177615e-010
1.982694406529732e-003	-1.302239e-001	2.193802e-001	1.059120e-010
