v3	V(vin)	V(vo1)	V(vout)
-1.000000000000000e+001	-1.000000e+001	-8.950839e+000	-9.116730e+000
-9.900000000000000e+000	-9.900000e+000	-8.950853e+000	-9.116743e+000
-9.800000000000001e+000	-9.800000e+000	-8.950867e+000	-9.116757e+000
-9.700000000000001e+000	-9.700000e+000	-8.950881e+000	-9.116771e+000
-9.600000000000001e+000	-9.600000e+000	-8.950894e+000	-9.116785e+000
-9.500000000000002e+000	-9.500000e+000	-8.950909e+000	-9.116798e+000
-9.400000000000002e+000	-9.400000e+000	-8.950922e+000	-9.116812e+000
-9.300000000000003e+000	-9.300000e+000	-8.950936e+000	-9.116826e+000
-9.200000000000003e+000	-9.200000e+000	-8.950950e+000	-9.116839e+000
-9.100000000000003e+000	-9.100000e+000	-8.950963e+000	-9.116853e+000
-9.000000000000004e+000	-9.000000e+000	-8.950977e+000	-9.116866e+000
-8.900000000000004e+000	-8.900000e+000	-8.950991e+000	-9.116879e+000
-8.800000000000004e+000	-8.800000e+000	-8.951004e+000	-9.116866e+000
-8.700000000000005e+000	-8.700000e+000	-8.951005e+000	-9.115788e+000
-8.600000000000005e+000	-8.600000e+000	-8.950813e+000	-9.097050e+000
-8.500000000000005e+000	-8.500000e+000	-8.948356e+000	-8.864408e+000
-8.400000000000006e+000	-8.400000e+000	-8.945386e+000	-8.572862e+000
-8.300000000000006e+000	-8.300000e+000	-8.942528e+000	-8.280982e+000
-8.200000000000006e+000	-8.200000e+000	-8.939770e+000	-7.988797e+000
-8.100000000000007e+000	-8.100000e+000	-8.937104e+000	-7.696333e+000
-8.000000000000007e+000	-8.000000e+000	-8.934524e+000	-7.403612e+000
-7.900000000000008e+000	-7.900000e+000	-8.932022e+000	-7.110654e+000
-7.800000000000008e+000	-7.800000e+000	-8.929592e+000	-6.817477e+000
-7.700000000000008e+000	-7.700000e+000	-8.927230e+000	-6.524095e+000
-7.600000000000009e+000	-7.600000e+000	-8.924930e+000	-6.230523e+000
-7.500000000000009e+000	-7.500000e+000	-8.922688e+000	-5.936772e+000
-7.400000000000009e+000	-7.400000e+000	-8.920503e+000	-5.642855e+000
-7.300000000000010e+000	-7.300000e+000	-8.918368e+000	-5.348781e+000
-7.200000000000010e+000	-7.200000e+000	-8.916283e+000	-5.054560e+000
-7.100000000000010e+000	-7.100000e+000	-8.914243e+000	-4.760199e+000
-7.000000000000011e+000	-7.000000e+000	-8.912247e+000	-4.465706e+000
-6.900000000000011e+000	-6.900000e+000	-8.910292e+000	-4.171089e+000
-6.800000000000011e+000	-6.800000e+000	-8.908376e+000	-3.876353e+000
-6.700000000000012e+000	-6.700000e+000	-8.906498e+000	-3.581504e+000
-6.600000000000012e+000	-6.600000e+000	-8.904655e+000	-3.286549e+000
-6.500000000000012e+000	-6.500000e+000	-8.902846e+000	-2.991491e+000
-6.400000000000013e+000	-6.400000e+000	-8.901071e+000	-2.696336e+000
-6.300000000000013e+000	-6.300000e+000	-8.899325e+000	-2.401087e+000
-6.200000000000014e+000	-6.200000e+000	-8.897611e+000	-2.105749e+000
-6.100000000000014e+000	-6.100000e+000	-8.895925e+000	-1.810325e+000
-6.000000000000014e+000	-6.000000e+000	-8.894265e+000	-1.514820e+000
-5.900000000000015e+000	-5.900000e+000	-8.892633e+000	-1.219235e+000
-5.800000000000015e+000	-5.800000e+000	-8.891026e+000	-9.235744e-001
-5.700000000000015e+000	-5.700000e+000	-8.889444e+000	-6.278411e-001
-5.600000000000016e+000	-5.600000e+000	-8.887886e+000	-3.320374e-001
-5.500000000000016e+000	-5.500000e+000	-8.886352e+000	-3.616594e-002
-5.400000000000016e+000	-5.400000e+000	-8.884838e+000	2.597708e-001
-5.300000000000017e+000	-5.300000e+000	-8.883347e+000	5.557707e-001
-5.200000000000017e+000	-5.200000e+000	-8.881876e+000	8.518316e-001
-5.100000000000017e+000	-5.100000e+000	-8.880425e+000	1.147951e+000
-5.000000000000018e+000	-5.000000e+000	-8.878994e+000	1.444128e+000
-4.900000000000018e+000	-4.900000e+000	-8.877582e+000	1.740360e+000
-4.800000000000019e+000	-4.800000e+000	-8.876188e+000	2.036646e+000
-4.700000000000019e+000	-4.700000e+000	-8.874812e+000	2.332983e+000
-4.600000000000019e+000	-4.600000e+000	-8.873453e+000	2.629371e+000
-4.500000000000020e+000	-4.500000e+000	-8.872111e+000	2.925807e+000
-4.400000000000020e+000	-4.400000e+000	-8.870785e+000	3.222287e+000
-4.300000000000020e+000	-4.300000e+000	-8.869395e+000	3.518659e+000
-4.200000000000021e+000	-4.200000e+000	-8.865113e+000	3.809288e+000
-4.100000000000021e+000	-4.100000e+000	-8.827334e+000	4.033288e+000
-4.000000000000021e+000	-4.000000e+000	-8.660267e+000	4.000085e+000
-3.900000000000021e+000	-3.900000e+000	-8.459626e+000	3.900117e+000
-3.800000000000021e+000	-3.800000e+000	-8.258950e+000	3.800114e+000
-3.700000000000021e+000	-3.700000e+000	-8.058262e+000	3.700122e+000
-3.600000000000021e+000	-3.600000e+000	-7.857554e+000	3.600129e+000
-3.500000000000021e+000	-3.500000e+000	-7.656826e+000	3.500137e+000
-3.400000000000021e+000	-3.400000e+000	-7.456078e+000	3.400145e+000
-3.300000000000021e+000	-3.300000e+000	-7.255307e+000	3.300152e+000
-3.200000000000021e+000	-3.200000e+000	-7.054513e+000	3.200160e+000
-3.100000000000021e+000	-3.100000e+000	-6.853693e+000	3.100167e+000
-3.000000000000020e+000	-3.000000e+000	-6.652846e+000	3.000175e+000
-2.900000000000020e+000	-2.900000e+000	-6.451970e+000	2.900182e+000
-2.800000000000020e+000	-2.800000e+000	-6.251064e+000	2.800190e+000
-2.700000000000020e+000	-2.700000e+000	-6.050125e+000	2.700198e+000
-2.600000000000020e+000	-2.600000e+000	-5.849150e+000	2.600206e+000
-2.500000000000020e+000	-2.500000e+000	-5.648137e+000	2.500214e+000
-2.400000000000020e+000	-2.400000e+000	-5.447083e+000	2.400221e+000
-2.300000000000020e+000	-2.300000e+000	-5.245984e+000	2.300229e+000
-2.200000000000020e+000	-2.200000e+000	-5.044836e+000	2.200238e+000
-2.100000000000020e+000	-2.100000e+000	-4.843634e+000	2.100245e+000
-2.000000000000020e+000	-2.000000e+000	-4.642374e+000	2.000254e+000
-1.900000000000020e+000	-1.900000e+000	-4.441050e+000	1.900262e+000
-1.800000000000019e+000	-1.800000e+000	-4.239653e+000	1.800271e+000
-1.700000000000019e+000	-1.700000e+000	-4.038177e+000	1.700279e+000
-1.600000000000019e+000	-1.600000e+000	-3.836611e+000	1.600288e+000
-1.500000000000019e+000	-1.500000e+000	-3.634944e+000	1.500297e+000
-1.400000000000019e+000	-1.400000e+000	-3.433163e+000	1.400306e+000
-1.300000000000019e+000	-1.300000e+000	-3.231249e+000	1.300315e+000
-1.200000000000019e+000	-1.200000e+000	-3.029182e+000	1.200325e+000
-1.100000000000019e+000	-1.100000e+000	-2.826935e+000	1.100335e+000
-1.000000000000019e+000	-1.000000e+000	-2.624474e+000	1.000345e+000
-9.000000000000187e-001	-9.000000e-001	-2.421753e+000	9.003564e-001
-8.000000000000187e-001	-8.000000e-001	-2.218713e+000	8.003680e-001
-7.000000000000187e-001	-7.000000e-001	-2.015266e+000	7.003805e-001
-6.000000000000187e-001	-6.000000e-001	-1.811289e+000	6.003941e-001
-5.000000000000188e-001	-5.000000e-001	-1.606587e+000	5.004092e-001
-4.000000000000188e-001	-4.000000e-001	-1.400840e+000	4.004265e-001
-3.000000000000188e-001	-3.000000e-001	-1.193396e+000	3.004472e-001
-2.000000000000188e-001	-2.000000e-001	-9.829407e-001	2.004735e-001
-1.000000000000188e-001	-1.000000e-001	-7.650818e-001	1.004891e-001
-1.879052469178077e-014	-1.879052e-014	-4.273420e-001	4.883357e-004
9.999999999998122e-002	1.000000e-001	6.358389e-001	9.951272e-002
1.999999999999812e-001	2.000000e-001	7.538943e-001	1.995148e-001
2.999999999999812e-001	3.000000e-001	8.643611e-001	2.995169e-001
3.999999999999813e-001	4.000000e-001	9.719651e-001	3.995190e-001
4.999999999999812e-001	5.000000e-001	1.077648e+000	4.995211e-001
5.999999999999812e-001	6.000000e-001	1.182314e+000	5.995232e-001
6.999999999999812e-001	7.000000e-001	1.286294e+000	6.995253e-001
7.999999999999812e-001	8.000000e-001	1.389748e+000	7.995273e-001
8.999999999999812e-001	9.000000e-001	1.492795e+000	8.995294e-001
9.999999999999811e-001	1.000000e+000	1.595521e+000	9.995314e-001
1.099999999999981e+000	1.100000e+000	1.697988e+000	1.099533e+000
1.199999999999981e+000	1.200000e+000	1.800240e+000	1.199535e+000
1.299999999999981e+000	1.300000e+000	1.902312e+000	1.299538e+000
1.399999999999982e+000	1.400000e+000	2.004230e+000	1.399540e+000
1.499999999999982e+000	1.500000e+000	2.106016e+000	1.499542e+000
1.599999999999982e+000	1.600000e+000	2.207687e+000	1.599544e+000
1.699999999999982e+000	1.700000e+000	2.309256e+000	1.699546e+000
1.799999999999982e+000	1.800000e+000	2.410736e+000	1.799548e+000
1.899999999999982e+000	1.900000e+000	2.512136e+000	1.899549e+000
1.999999999999982e+000	2.000000e+000	2.613464e+000	1.999552e+000
2.099999999999982e+000	2.100000e+000	2.714727e+000	2.099554e+000
2.199999999999982e+000	2.200000e+000	2.815932e+000	2.199555e+000
2.299999999999982e+000	2.300000e+000	2.917083e+000	2.299557e+000
2.399999999999982e+000	2.400000e+000	3.018185e+000	2.399559e+000
2.499999999999982e+000	2.500000e+000	3.119242e+000	2.499561e+000
2.599999999999982e+000	2.600000e+000	3.220258e+000	2.599563e+000
2.699999999999982e+000	2.700000e+000	3.321235e+000	2.699565e+000
2.799999999999983e+000	2.800000e+000	3.422177e+000	2.799567e+000
2.899999999999983e+000	2.900000e+000	3.523085e+000	2.899569e+000
2.999999999999983e+000	3.000000e+000	3.623963e+000	2.999571e+000
3.099999999999983e+000	3.100000e+000	3.724813e+000	3.099573e+000
3.199999999999983e+000	3.200000e+000	3.825635e+000	3.199575e+000
3.299999999999983e+000	3.300000e+000	3.926432e+000	3.299577e+000
3.399999999999983e+000	3.400000e+000	4.027205e+000	3.399579e+000
3.499999999999983e+000	3.500000e+000	4.127956e+000	3.499580e+000
3.599999999999983e+000	3.600000e+000	4.228686e+000	3.599582e+000
3.699999999999983e+000	3.700000e+000	4.329395e+000	3.699584e+000
3.799999999999983e+000	3.800000e+000	4.430086e+000	3.799586e+000
3.899999999999984e+000	3.900000e+000	4.530759e+000	3.899588e+000
3.999999999999984e+000	4.000000e+000	4.631415e+000	3.999590e+000
4.099999999999984e+000	4.100000e+000	4.732055e+000	4.099592e+000
4.199999999999983e+000	4.200000e+000	4.832679e+000	4.199594e+000
4.299999999999983e+000	4.300000e+000	4.933289e+000	4.299595e+000
4.399999999999983e+000	4.400000e+000	5.033885e+000	4.399597e+000
4.499999999999982e+000	4.500000e+000	5.134467e+000	4.499599e+000
4.599999999999982e+000	4.600000e+000	5.235036e+000	4.599601e+000
4.699999999999982e+000	4.700000e+000	5.335593e+000	4.699603e+000
4.799999999999981e+000	4.800000e+000	5.436139e+000	4.799604e+000
4.899999999999981e+000	4.900000e+000	5.536673e+000	4.899606e+000
4.999999999999981e+000	5.000000e+000	5.637197e+000	4.999608e+000
5.099999999999980e+000	5.100000e+000	5.737710e+000	5.099609e+000
5.199999999999980e+000	5.200000e+000	5.838213e+000	5.199611e+000
5.299999999999979e+000	5.300000e+000	5.938707e+000	5.299613e+000
5.399999999999979e+000	5.400000e+000	6.039191e+000	5.399615e+000
5.499999999999979e+000	5.500000e+000	6.139667e+000	5.499617e+000
5.599999999999978e+000	5.600000e+000	6.240134e+000	5.599618e+000
5.699999999999978e+000	5.700000e+000	6.340592e+000	5.699620e+000
5.799999999999978e+000	5.800000e+000	6.441043e+000	5.799622e+000
5.899999999999977e+000	5.900000e+000	6.541486e+000	5.899624e+000
5.999999999999977e+000	6.000000e+000	6.641922e+000	5.999625e+000
6.099999999999977e+000	6.100000e+000	6.742351e+000	6.099627e+000
6.199999999999976e+000	6.200000e+000	6.842772e+000	6.199629e+000
6.299999999999976e+000	6.300000e+000	6.943187e+000	6.299631e+000
6.399999999999976e+000	6.400000e+000	7.043595e+000	6.399632e+000
6.499999999999975e+000	6.500000e+000	7.143997e+000	6.499634e+000
6.599999999999975e+000	6.600000e+000	7.244393e+000	6.599636e+000
6.699999999999974e+000	6.700000e+000	7.344783e+000	6.699637e+000
6.799999999999974e+000	6.800000e+000	7.445167e+000	6.799639e+000
6.899999999999974e+000	6.900000e+000	7.545546e+000	6.899641e+000
6.999999999999973e+000	7.000000e+000	7.645918e+000	6.999642e+000
7.099999999999973e+000	7.100000e+000	7.746286e+000	7.099644e+000
7.199999999999973e+000	7.200000e+000	7.846649e+000	7.199646e+000
7.299999999999972e+000	7.300000e+000	7.947007e+000	7.299647e+000
7.399999999999972e+000	7.400000e+000	8.047359e+000	7.399649e+000
7.499999999999972e+000	7.500000e+000	8.147704e+000	7.499653e+000
7.599999999999971e+000	7.600000e+000	8.248035e+000	7.599663e+000
7.699999999999971e+000	7.700000e+000	8.348355e+000	7.699677e+000
7.799999999999971e+000	7.800000e+000	8.448654e+000	7.799702e+000
7.899999999999970e+000	7.900000e+000	8.513515e+000	7.923221e+000
7.999999999999970e+000	8.000000e+000	8.514119e+000	8.089343e+000
8.099999999999969e+000	8.100000e+000	8.514727e+000	8.255462e+000
8.199999999999969e+000	8.200000e+000	8.515337e+000	8.421544e+000
8.299999999999969e+000	8.300000e+000	8.515949e+000	8.587410e+000
8.399999999999968e+000	8.400000e+000	8.516206e+000	8.656545e+000
8.499999999999968e+000	8.500000e+000	8.516206e+000	8.656546e+000
8.599999999999968e+000	8.600000e+000	8.516206e+000	8.656546e+000
8.699999999999967e+000	8.700000e+000	8.516206e+000	8.656546e+000
8.799999999999967e+000	8.800000e+000	8.516206e+000	8.656546e+000
8.899999999999967e+000	8.900000e+000	8.516206e+000	8.656546e+000
8.999999999999966e+000	9.000000e+000	8.516206e+000	8.656546e+000
9.099999999999966e+000	9.100000e+000	8.516206e+000	8.656546e+000
9.199999999999966e+000	9.200000e+000	8.516206e+000	8.656546e+000
9.299999999999965e+000	9.300000e+000	8.516206e+000	8.656546e+000
9.399999999999965e+000	9.400000e+000	8.516206e+000	8.656546e+000
9.499999999999965e+000	9.500000e+000	8.516206e+000	8.656546e+000
9.599999999999964e+000	9.600000e+000	8.516206e+000	8.656546e+000
9.699999999999964e+000	9.700000e+000	8.516206e+000	8.656546e+000
9.799999999999963e+000	9.800000e+000	8.516206e+000	8.656546e+000
9.899999999999963e+000	9.900000e+000	8.516206e+000	8.656546e+000
1.000000000000000e+001	1.000000e+001	8.516206e+000	8.656546e+000
