time	V(vin)	V(vout)	V(n002)
0.000000000000000e+000	0.000000e+000	8.943978e+000	3.152111e+000
3.006919653541576e-006	1.890677e-001	8.943979e+000	3.152268e+000
6.013839307083153e-006	3.779062e-001	8.943980e+000	3.152424e+000
9.020758960624730e-006	5.665154e-001	8.943981e+000	3.152581e+000
1.202767861416631e-005	7.548955e-001	8.943982e+000	3.152737e+000
1.503459826770788e-005	9.430464e-001	8.943983e+000	3.152893e+000
1.804151792124946e-005	1.130968e+000	8.943984e+000	3.153048e+000
2.104843757479103e-005	1.318660e+000	8.943985e+000	3.153204e+000
3.011651793193389e-005	1.885402e+000	8.943988e+000	3.153673e+000
3.918459828907675e-005	2.441612e+000	8.943990e+000	3.154134e+000
4.825267864621961e-005	2.987291e+000	8.943993e+000	3.154586e+000
5.732075900336247e-005	3.522440e+000	8.943996e+000	3.155029e+000
6.638883936050532e-005	4.047058e+000	8.943999e+000	3.155464e+000
7.545691971764820e-005	4.561146e+000	8.944001e+000	3.155890e+000
8.452500007479103e-005	5.064703e+000	8.944004e+000	3.156307e+000
9.429062507479103e-005	5.583914e+000	8.944004e+000	3.156737e+000
1.046666016372910e-004	6.112505e+000	8.942065e+000	3.156857e+000
1.058873047622910e-004	6.173027e+000	8.938233e+000	3.156276e+000
1.065943469511713e-004	6.207916e+000	8.933516e+000	3.155528e+000
1.072938824154288e-004	6.242314e+000	8.924392e+000	3.154053e+000
1.080323624010497e-004	6.278496e+000	8.906007e+000	3.151048e+000
1.088599602748128e-004	6.318884e+000	8.868784e+000	3.144922e+000
1.092798507446429e-004	6.339310e+000	8.829693e+000	3.138453e+000
1.097519874757823e-004	6.362225e+000	8.744841e+000	3.124373e+000
1.101911158978479e-004	6.383488e+000	8.615714e+000	3.102917e+000
1.106813061655611e-004	6.407166e+000	8.419157e+000	3.070237e+000
1.113542408147210e-004	6.439572e+000	8.097476e+000	3.016740e+000
1.120271754638809e-004	6.471862e+000	7.773858e+000	2.962920e+000
1.127001101130409e-004	6.504036e+000	7.448304e+000	2.908778e+000
1.133730447622008e-004	6.536093e+000	7.120813e+000	2.854314e+000
1.140459794113607e-004	6.568034e+000	6.791386e+000	2.799526e+000
1.147189140605206e-004	6.599859e+000	6.460022e+000	2.744417e+000
1.153918487096806e-004	6.631567e+000	6.126721e+000	2.688984e+000
1.195891374456422e-004	6.826630e+000	4.081240e+000	2.348796e+000
1.244719499456422e-004	7.047568e+000	1.717782e+000	1.955722e+000
1.266731343906043e-004	7.145011e+000	6.596997e-001	1.779748e+000
1.277897811420286e-004	7.193922e+000	1.935839e-001	1.702231e+000
1.285043824000948e-004	7.225037e+000	4.641681e-002	1.677769e+000
1.294270577677023e-004	7.264996e+000	2.518871e-002	1.674270e+000
1.300249108373401e-004	7.290758e+000	2.516958e-002	1.674289e+000
1.307408780175206e-004	7.321473e+000	2.241628e-002	1.673856e+000
1.317403340132303e-004	7.364103e+000	2.303002e-002	1.673993e+000
1.329810656406219e-004	7.416620e+000	2.255132e-002	1.673957e+000
1.354625288954051e-004	7.520298e+000	2.270448e-002	1.674068e+000
1.390348283382533e-004	7.666336e+000	2.262477e-002	1.674175e+000
1.536832658382534e-004	8.224020e+000	2.261389e-002	1.674634e+000
1.683317033382534e-004	8.712088e+000	2.258813e-002	1.675034e+000
1.829801408382534e-004	9.126406e+000	2.257426e-002	1.675375e+000
1.976285783382534e-004	9.463468e+000	2.255191e-002	1.675650e+000
2.122770158382534e-004	9.720419e+000	2.254017e-002	1.675860e+000
2.269254533382534e-004	9.895085e+000	2.253575e-002	1.676004e+000
2.415738908382534e-004	9.985989e+000	2.253260e-002	1.676079e+000
2.562223283382534e-004	9.992358e+000	2.252783e-002	1.676084e+000
2.708707658382534e-004	9.914142e+000	2.252339e-002	1.676018e+000
2.855192033382534e-004	9.751999e+000	2.251815e-002	1.675883e+000
3.001676408382535e-004	9.507305e+000	2.251253e-002	1.675679e+000
3.148160783382535e-004	9.182130e+000	2.250642e-002	1.675409e+000
3.294645158382535e-004	8.779226e+000	2.249951e-002	1.675075e+000
3.441129533382535e-004	8.302005e+000	2.249223e-002	1.674679e+000
3.587613908382535e-004	7.754506e+000	2.248396e-002	1.674224e+000
3.734098283382535e-004	7.141363e+000	2.247541e-002	1.673715e+000
3.880582658382535e-004	6.467768e+000	2.246584e-002	1.673156e+000
4.027067033382535e-004	5.739422e+000	2.245608e-002	1.672552e+000
4.173551408382536e-004	4.962491e+000	2.244091e-002	1.671906e+000
4.320035783382536e-004	4.143551e+000	2.241978e-002	1.671225e+000
4.368863908382536e-004	3.862425e+000	2.268096e-002	1.671035e+000
4.417692033382536e-004	3.577664e+000	2.363475e-002	1.670957e+000
4.423795549007536e-004	3.541827e+000	2.474540e-002	1.671110e+000
4.436002580257535e-004	3.469996e+000	3.050173e-002	1.671998e+000
4.441922685347899e-004	3.435086e+000	3.649312e-002	1.672955e+000
4.447578164284031e-004	3.401693e+000	4.816875e-002	1.674852e+000
4.455040189939651e-004	3.357566e+000	7.630932e-002	1.679464e+000
4.460505161855554e-004	3.325202e+000	1.171641e-001	1.686207e+000
4.464862650895426e-004	3.299369e+000	1.832213e-001	1.697157e+000
4.469112447956265e-004	3.274150e+000	2.955412e-001	1.715811e+000
4.473569909918796e-004	3.247674e+000	4.639268e-001	1.743801e+000
4.479120674558594e-004	3.214668e+000	7.140167e-001	1.785384e+000
4.484341973702019e-004	3.183586e+000	9.633172e-001	1.826839e+000
4.489235439705721e-004	3.154424e+000	1.199337e+000	1.866086e+000
4.498173095814857e-004	3.101085e+000	1.629313e+000	1.937586e+000
4.516048408033129e-004	2.994115e+000	2.490338e+000	2.080764e+000
4.551799032469671e-004	2.779054e+000	4.224786e+000	2.369182e+000
4.600627157469671e-004	2.483082e+000	6.573286e+000	2.759705e+000
4.649455282469671e-004	2.184772e+000	8.593470e+000	3.095598e+000
4.667913592407726e-004	2.071453e+000	8.929700e+000	3.151450e+000
4.709386490723317e-004	1.815487e+000	8.935567e+000	3.152215e+000
4.750859389038907e-004	1.558701e+000	8.940109e+000	3.152758e+000
4.792332287354498e-004	1.301094e+000	8.943326e+000	3.153080e+000
4.833805185670088e-004	1.042666e+000	8.945217e+000	3.153180e+000
4.875278083985678e-004	7.834172e-001	8.945783e+000	3.153060e+000
4.916750982301268e-004	5.233475e-001	8.945023e+000	3.152718e+000
4.958223880616859e-004	2.624570e-001	8.942938e+000	3.152156e+000
5.055880130616859e-004	-3.510331e-001	8.943097e+000	3.151674e+000
5.104708255616859e-004	-6.574269e-001	8.943178e+000	3.151434e+000
5.153536380616859e-004	-9.632019e-001	8.942440e+000	3.151069e+000
5.202364505616859e-004	-1.268070e+000	8.939400e+000	3.150370e+000
5.243095609189544e-004	-1.521483e+000	8.930197e+000	3.148744e+000
5.285075153046492e-004	-1.781618e+000	8.917335e+000	3.146552e+000
5.324142757730146e-004	-2.022598e+000	8.892122e+000	3.142322e+000
5.417777505154459e-004	-2.594932e+000	8.763830e+000	3.120908e+000
5.455765348040137e-004	-2.824679e+000	8.546927e+000	3.084793e+000
5.496567730946558e-004	-3.069653e+000	7.985355e+000	2.991328e+000
5.545395855946558e-004	-3.360147e+000	6.834232e+000	2.799764e+000
5.576643994470209e-004	-3.544409e+000	5.664932e+000	2.605187e+000
5.615115736148964e-004	-3.769384e+000	3.595354e+000	2.260810e+000
5.643134807922114e-004	-3.931854e+000	1.665754e+000	1.939729e+000
5.653839259625710e-004	-3.993606e+000	7.845898e-001	1.793107e+000
5.660045404394178e-004	-4.029325e+000	2.615263e-001	1.706071e+000
5.663653922325946e-004	-4.050066e+000	2.634091e-002	1.666937e+000
5.664177382778338e-004	-4.053073e+000	1.139766e-002	1.664451e+000
5.665224303683120e-004	-4.059086e+000	6.575229e-003	1.663648e+000
5.667318145492685e-004	-4.071105e+000	3.788144e-003	1.663183e+000
5.671505829111816e-004	-4.095124e+000	2.573021e-003	1.662978e+000
5.687784553575770e-004	-4.188221e+000	-7.508789e-004	1.662417e+000
5.709489519527709e-004	-4.311666e+000	-4.960560e-003	1.661705e+000
5.752899451431587e-004	-4.556129e+000	-1.281772e-002	1.660376e+000
5.801727576431587e-004	-4.827046e+000	-2.089256e-002	1.659008e+000
5.850555701431587e-004	-5.093419e+000	-2.820177e-002	1.657768e+000
5.899383826431587e-004	-5.354999e+000	-3.482104e-002	1.656644e+000
5.948211951431587e-004	-5.611538e+000	-4.085258e-002	1.655617e+000
5.997040076431587e-004	-5.862796e+000	-4.636650e-002	1.654678e+000
6.045868201431587e-004	-6.108537e+000	-5.142844e-002	1.653815e+000
6.094696326431587e-004	-6.348528e+000	-5.608823e-002	1.653019e+000
6.143524451431588e-004	-6.582544e+000	-6.039025e-002	1.652283e+000
6.192352576431588e-004	-6.810365e+000	-6.437029e-002	1.651601e+000
6.241180701431588e-004	-7.031776e+000	-6.805936e-002	1.650969e+000
6.290008826431588e-004	-7.246570e+000	-7.148369e-002	1.650381e+000
6.338836951431588e-004	-7.454543e+000	-7.466555e-002	1.649834e+000
6.436493201431588e-004	-7.849251e+000	-8.037707e-002	1.648850e+000
6.582977576431588e-004	-8.385489e+000	-8.753382e-002	1.647614e+000
6.729461951431588e-004	-8.850740e+000	-9.326011e-002	1.646623e+000
6.875946326431588e-004	-9.241069e+000	-9.774843e-002	1.645844e+000
7.022430701431588e-004	-9.553171e+000	-1.011793e-001	1.645247e+000
7.120086951431588e-004	-9.716447e+000	-1.029215e-001	1.644943e+000
7.217743201431588e-004	-9.843152e+000	-1.042491e-001	1.644712e+000
7.315399451431589e-004	-9.932810e+000	-1.051775e-001	1.644550e+000
7.413055701431589e-004	-9.985083e+000	-1.057173e-001	1.644456e+000
7.510711951431589e-004	-9.999773e+000	-1.058742e-001	1.644429e+000
7.608368201431589e-004	-9.976828e+000	-1.056502e-001	1.644468e+000
7.706024451431589e-004	-9.916331e+000	-1.050426e-001	1.644574e+000
7.803680701431589e-004	-9.818513e+000	-1.040448e-001	1.644748e+000
7.901336951431589e-004	-9.683739e+000	-1.026455e-001	1.644992e+000
7.998993201431589e-004	-9.512518e+000	-1.008284e-001	1.645308e+000
8.145477576431589e-004	-9.188794e+000	-9.727550e-002	1.645926e+000
8.291961951431589e-004	-8.787286e+000	-9.265109e-002	1.646729e+000
8.438446326431590e-004	-8.311391e+000	-8.676839e-002	1.647748e+000
8.584930701431590e-004	-7.765140e+000	-7.942536e-002	1.649015e+000
8.682586951431590e-004	-7.364144e+000	-7.356600e-002	1.650024e+000
8.731415076431590e-004	-7.153154e+000	-7.030085e-002	1.650585e+000
8.780243201431590e-004	-6.935432e+000	-6.678604e-002	1.651188e+000
8.829071326431590e-004	-6.711183e+000	-6.299755e-002	1.651838e+000
8.877899451431590e-004	-6.480617e+000	-5.890823e-002	1.652538e+000
8.926727576431590e-004	-6.243951e+000	-5.448483e-002	1.653294e+000
8.975555701431590e-004	-6.001410e+000	-4.968987e-002	1.654113e+000
9.024383826431590e-004	-5.753220e+000	-4.447610e-002	1.655002e+000
9.073211951431590e-004	-5.499615e+000	-3.879073e-002	1.655970e+000
9.122040076431590e-004	-5.240834e+000	-3.256474e-002	1.657029e+000
9.170868201431590e-004	-4.977120e+000	-2.572309e-002	1.658190e+000
9.219696326431590e-004	-4.708723e+000	-1.815642e-002	1.659473e+000
9.268524451431590e-004	-4.435893e+000	-9.755734e-003	1.660895e+000
9.317352576431590e-004	-4.158889e+000	-3.692850e-004	1.662483e+000
9.366180701431590e-004	-3.877970e+000	1.013977e-002	1.664257e+000
9.415008826431590e-004	-3.593402e+000	2.205545e-002	1.666267e+000
9.463836951431590e-004	-3.305452e+000	3.565392e-002	1.668557e+000
9.512665076431590e-004	-3.014391e+000	5.233061e-002	1.671361e+000
9.561493201431591e-004	-2.720492e+000	7.843495e-002	1.675735e+000
9.610321326431591e-004	-2.424034e+000	1.600948e-001	1.689355e+000
9.659149451431591e-004	-2.125293e+000	4.045575e-001	1.730066e+000
9.698801761336064e-004	-1.881208e+000	8.432328e-001	1.803090e+000
9.735526577752038e-004	-1.654098e+000	1.526007e+000	1.916732e+000
9.762205080545386e-004	-1.488557e+000	2.251641e+000	2.037504e+000
9.792696746417269e-004	-1.298845e+000	3.362310e+000	2.222373e+000
9.828375148873126e-004	-1.076262e+000	4.921613e+000	2.481951e+000
9.856592482310655e-004	-8.998372e-001	6.267513e+000	2.706028e+000
9.884788012985220e-004	-7.232662e-001	7.647219e+000	2.935744e+000
9.906451896337068e-004	-5.874417e-001	8.595748e+000	3.093683e+000
9.918804547573033e-004	-5.099448e-001	8.937173e+000	3.150557e+000
9.952841189223482e-004	-2.960476e-001	8.940885e+000	3.151352e+000
9.986877830873932e-004	-8.225007e-002	8.943687e+000	3.151995e+000
1.002091447252438e-003	1.314478e-001	8.945579e+000	3.152486e+000
1.005495111417483e-003	3.450460e-001	8.946562e+000	3.152827e+000
1.008898775582528e-003	5.585446e-001	8.946634e+000	3.153015e+000
1.012302439747573e-003	7.719434e-001	8.945797e+000	3.153053e+000
1.015706103912618e-003	9.852427e-001	8.944050e+000	3.152939e+000
1.024076639626903e-003	1.510524e+000	8.944043e+000	3.153372e+000
1.032447175341189e-003	2.028113e+000	8.944037e+000	3.153800e+000
1.040817711055474e-003	2.538009e+000	8.944033e+000	3.154221e+000
1.049188246769760e-003	3.040212e+000	8.944029e+000	3.154636e+000
1.057558782484046e-003	3.534722e+000	8.944026e+000	3.155045e+000
1.065929318198331e-003	4.021540e+000	8.944025e+000	3.155447e+000
1.074299853912617e-003	4.500665e+000	8.944024e+000	3.155844e+000
1.088948291412616e-003	5.302358e+000	8.944023e+000	3.156507e+000
1.105637276731572e-003	6.160660e+000	8.940022e+000	3.156560e+000
1.106336893126643e-003	6.195226e+000	8.935716e+000	3.155880e+000
1.107269714986737e-003	6.241128e+000	8.923808e+000	3.153955e+000
1.108143057905335e-003	6.283908e+000	8.901697e+000	3.150340e+000
1.108935403308504e-003	6.322557e+000	8.863060e+000	3.143976e+000
1.109344581172901e-003	6.342455e+000	8.821376e+000	3.137075e+000
1.109797854854023e-003	6.364449e+000	8.734043e+000	3.122580e+000
1.110234775040778e-003	6.385599e+000	8.600117e+000	3.100324e+000
1.111163889029012e-003	6.430416e+000	8.195464e+000	3.033037e+000
1.113282417471766e-003	6.531784e+000	7.159057e+000	2.860673e+000
1.115371887209890e-003	6.630628e+000	6.135786e+000	2.690491e+000
1.119550826686137e-003	6.824871e+000	4.099147e+000	2.351774e+000
1.124433639186137e-003	7.045860e+000	1.735560e+000	1.958678e+000
1.126660030639832e-003	7.144435e+000	6.648923e-001	1.780611e+000
1.127779992014617e-003	7.193495e+000	1.960107e-001	1.702634e+000
1.128495407767127e-003	7.224647e+000	4.735577e-002	1.677925e+000
1.129423419313612e-003	7.264839e+000	2.514379e-002	1.674263e+000
1.130020365108755e-003	7.290562e+000	2.511980e-002	1.674280e+000
1.130738642898430e-003	7.321378e+000	2.241049e-002	1.673855e+000
1.131750852164196e-003	7.364550e+000	2.301488e-002	1.673991e+000
1.133003559171025e-003	7.417568e+000	2.255058e-002	1.673958e+000
1.135508973184684e-003	7.522221e+000	2.270174e-002	1.674069e+000
1.139138945404203e-003	7.670534e+000	2.262378e-002	1.674178e+000
1.153787382904203e-003	8.227740e+000	2.261247e-002	1.674637e+000
1.168435820404202e-003	8.715298e+000	2.258704e-002	1.675036e+000
1.183084257904202e-003	9.129078e+000	2.257342e-002	1.675377e+000
1.197732695404202e-003	9.465579e+000	2.255144e-002	1.675651e+000
1.212381132904201e-003	9.721953e+000	2.253994e-002	1.675862e+000
1.227029570404201e-003	9.896029e+000	2.253552e-002	1.676005e+000
1.241678007904201e-003	9.986333e+000	2.253239e-002	1.676079e+000
1.256326445404200e-003	9.992101e+000	2.252764e-002	1.676083e+000
1.270974882904200e-003	9.913283e+000	2.252323e-002	1.676017e+000
1.285623320404200e-003	9.750549e+000	2.251801e-002	1.675882e+000
1.300271757904199e-003	9.505275e+000	2.251241e-002	1.675678e+000
1.314920195404199e-003	9.179537e+000	2.250631e-002	1.675407e+000
1.329568632904199e-003	8.776092e+000	2.249940e-002	1.675072e+000
1.344217070404199e-003	8.298356e+000	2.249214e-002	1.674676e+000
1.358865507904198e-003	7.750373e+000	2.248387e-002	1.674221e+000
1.373513945404198e-003	7.136782e+000	2.247532e-002	1.673711e+000
1.388162382904198e-003	6.462777e+000	2.246575e-002	1.673152e+000
1.402810820404197e-003	5.734064e+000	2.245599e-002	1.672547e+000
1.417459257904197e-003	4.956810e+000	2.244088e-002	1.671901e+000
1.432107695404197e-003	4.137597e+000	2.242001e-002	1.671220e+000
1.436990507904197e-003	3.856390e+000	2.271356e-002	1.671036e+000
1.441873320404196e-003	3.571554e+000	2.597666e-002	1.671337e+000
1.443743603078009e-003	3.461548e+000	3.093258e-002	1.672063e+000
1.443813716801136e-003	3.457414e+000	3.129597e-002	1.672119e+000
1.443893846770423e-003	3.452690e+000	3.196722e-002	1.672225e+000
1.444054106708998e-003	3.443238e+000	3.374673e-002	1.672510e+000
1.444374626586149e-003	3.424323e+000	3.895267e-002	1.673351e+000
1.445015666340449e-003	3.386453e+000	5.785520e-002	1.676440e+000
1.445904570837761e-003	3.333849e+000	1.050062e-001	1.684198e+000
1.446276742241998e-003	3.311794e+000	1.452666e-001	1.690860e+000
1.446654416349099e-003	3.289393e+000	2.227760e-001	1.703723e+000
1.447094626925229e-003	3.263261e+000	3.633132e-001	1.727075e+000
1.447596980696558e-003	3.233409e+000	5.706264e-001	1.761541e+000
1.447943632156110e-003	3.212790e+000	7.313223e-001	1.788261e+000
1.448433589601689e-003	3.183622e+000	9.669289e-001	1.827440e+000
1.448948360250002e-003	3.152945e+000	1.215107e+000	1.868709e+000
1.449977901546628e-003	3.091491e+000	1.710354e+000	1.951063e+000
1.451860823394588e-003	2.978765e+000	2.617810e+000	2.101961e+000
1.455626667090510e-003	2.752078e+000	4.446313e+000	2.406019e+000
1.460509479590510e-003	2.455880e+000	6.814467e+000	2.799813e+000
1.464737701435019e-003	2.197513e+000	8.602358e+000	3.097088e+000
1.466429193304328e-003	2.093709e+000	8.924748e+000	3.150645e+000
1.470474979530527e-003	1.844160e+000	8.933325e+000	3.151865e+000
1.474520765756726e-003	1.593800e+000	8.939911e+000	3.152754e+000
1.478566551982926e-003	1.342628e+000	8.944507e+000	3.153311e+000
1.482612338209125e-003	1.090644e+000	8.947114e+000	3.153536e+000
1.486658124435324e-003	8.378497e-001	8.947730e+000	3.153429e+000
1.490703910661523e-003	5.842437e-001	8.946356e+000	3.152991e+000
1.494749696887722e-003	3.298264e-001	8.942992e+000	3.152220e+000
1.504515321887722e-003	-2.836680e-001	8.943153e+000	3.151739e+000
1.509398134387722e-003	-5.901591e-001	8.943235e+000	3.151499e+000
1.514280946887722e-003	-8.960947e-001	8.942903e+000	3.151196e+000
1.519163759387722e-003	-1.201187e+000	8.940915e+000	3.150653e+000
1.522848003899901e-003	-1.430657e+000	8.934329e+000	3.149456e+000
1.526841312381684e-003	-1.678506e+000	8.923768e+000	3.147640e+000
1.530387464116660e-003	-1.897721e+000	8.908814e+000	3.145117e+000
1.539200013570273e-003	-2.438182e+000	8.832122e+000	3.132288e+000
1.543279769810636e-003	-2.685956e+000	8.660347e+000	3.103679e+000
1.547650816066832e-003	-2.949459e+000	8.237558e+000	3.033304e+000
1.551948964499321e-003	-3.206399e+000	7.478958e+000	2.907055e+000
1.555721011947874e-003	-3.429969e+000	6.377637e+000	2.723785e+000
1.559345844365536e-003	-3.642999e+000	4.797996e+000	2.460929e+000
1.562486404512846e-003	-3.826045e+000	2.888634e+000	2.143214e+000
1.565549979341332e-003	-4.003169e+000	6.085439e-001	1.763814e+000
1.566277816158220e-003	-4.045034e+000	6.196176e-002	1.672865e+000
1.566314358928640e-003	-4.047134e+000	4.283429e-002	1.669682e+000
1.566387444469480e-003	-4.051333e+000	2.453910e-002	1.666637e+000
1.566533615551159e-003	-4.059728e+000	9.081406e-003	1.664064e+000
1.566786582828523e-003	-4.074248e+000	3.453900e-003	1.663127e+000
1.567052439916597e-003	-4.089498e+000	2.770262e-003	1.663012e+000
1.568521375394086e-003	-4.173548e+000	-2.328447e-004	1.662504e+000
1.570479956030737e-003	-4.285060e+000	-4.071235e-003	1.661855e+000
1.574397117304039e-003	-4.506121e+000	-1.125921e-002	1.660639e+000
1.579279929804039e-003	-4.777841e+000	-1.947448e-002	1.659248e+000
1.584162742304039e-003	-5.045063e+000	-2.691985e-002	1.657985e+000
1.589045554804039e-003	-5.307538e+000	-3.365721e-002	1.656841e+000
1.593928367304039e-003	-5.565017e+000	-3.979035e-002	1.655798e+000
1.598811179804039e-003	-5.817259e+000	-4.539377e-002	1.654844e+000
1.603693992304039e-003	-6.064026e+000	-5.053429e-002	1.653967e+000
1.608576804804039e-003	-6.305085e+000	-5.526410e-002	1.653160e+000
1.613459617304038e-003	-6.540210e+000	-5.962867e-002	1.652413e+000
1.618342429804038e-003	-6.769180e+000	-6.366511e-002	1.651722e+000
1.623225242304038e-003	-6.991779e+000	-6.740532e-002	1.651081e+000
1.628108054804038e-003	-7.207798e+000	-7.087627e-002	1.650485e+000
