time	V(vin)	V(vout)	V(n002)
0.000000000000000e+000	0.000000e+000	8.538260e+000	3.089747e+000
1.249999976542833e-009	7.853981e-005	8.538260e+000	3.089747e+000
2.499999953085665e-009	1.570796e-004	8.538260e+000	3.089747e+000
3.749999929628498e-009	2.356194e-004	8.538260e+000	3.089748e+000
4.999999906171331e-009	3.141593e-004	8.538261e+000	3.089748e+000
6.249999882714163e-009	3.926991e-004	8.538261e+000	3.089748e+000
7.499999859256997e-009	4.712389e-004	8.538261e+000	3.089748e+000
8.749999835799827e-009	5.497787e-004	8.538261e+000	3.089748e+000
1.749999967159965e-008	1.099557e-003	8.538261e+000	3.089748e+000
3.499999934319931e-008	2.199115e-003	8.538260e+000	3.089748e+000
2.799999947455945e-007	1.759291e-002	8.538260e+000	3.089747e+000
4.449687471476085e-006	2.799470e-001	8.538260e+000	3.089747e+000
8.619374948206575e-006	5.416766e-001	8.538260e+000	3.089747e+000
1.278906242493707e-005	8.027817e-001	8.538260e+000	3.089747e+000
1.695874990166756e-005	1.063262e+000	8.538260e+000	3.089747e+000
2.112843737839805e-005	1.323118e+000	8.538260e+000	3.089747e+000
2.529812485512854e-005	1.582350e+000	8.538260e+000	3.089747e+000
2.946781233185902e-005	1.840957e+000	8.538260e+000	3.089747e+000
4.997562483185902e-005	3.088713e+000	8.538260e+000	3.089747e+000
7.048343733185902e-005	4.285258e+000	8.538260e+000	3.089747e+000
9.099124983185904e-005	5.410750e+000	8.538260e+000	3.089747e+000
1.005397071490965e-004	5.905253e+000	8.538273e+000	3.089749e+000
1.023098265561184e-004	5.994643e+000	8.538463e+000	3.089759e+000
1.055048161420171e-004	6.154102e+000	8.552941e+000	3.091955e+000
1.059446300434514e-004	6.175860e+000	8.563851e+000	3.093701e+000
1.062841475744374e-004	6.192624e+000	8.580243e+000	3.096243e+000
1.070050354000249e-004	6.228126e+000	8.651969e+000	3.108447e+000
1.075655252859989e-004	6.255639e+000	8.730254e+000	3.121728e+000
1.081680346774060e-004	6.285129e+000	8.817159e+000	3.136280e+000
1.083956607752985e-004	6.296247e+000	8.847101e+000	3.141621e+000
1.087092770135418e-004	6.311543e+000	8.876256e+000	3.147071e+000
1.089029514902079e-004	6.320978e+000	8.875427e+000	3.147325e+000
1.091358543003603e-004	6.332311e+000	8.836091e+000	3.141839e+000
1.094115022384773e-004	6.345706e+000	8.728088e+000	3.125227e+000
1.097074861675781e-004	6.360068e+000	8.555478e+000	3.092396e+000
1.098410618188818e-004	6.366542e+000	8.467257e+000	3.078964e+000
1.099524282931329e-004	6.371936e+000	8.383659e+000	3.064905e+000
1.100748053947277e-004	6.377861e+000	8.278205e+000	3.046863e+000
1.101921637884368e-004	6.383538e+000	8.168885e+000	3.029043e+000
1.103187746231838e-004	6.389660e+000	8.044002e+000	3.007674e+000
1.106220894610999e-004	6.404308e+000	7.736495e+000	2.956300e+000
1.112617558292738e-004	6.435125e+000	7.088915e+000	2.848501e+000
1.119014221974476e-004	6.465837e+000	6.451142e+000	2.742180e+000
1.125410885656215e-004	6.496443e+000	5.823178e+000	2.637337e+000
1.131807549337954e-004	6.526945e+000	5.205022e+000	2.533971e+000
1.138204213019692e-004	6.557341e+000	4.596675e+000	2.432082e+000
1.144600876701431e-004	6.587633e+000	3.998135e+000	2.331671e+000
1.150997540383169e-004	6.617819e+000	3.409404e+000	2.232737e+000
1.162038570255589e-004	6.669668e+000	2.447017e+000	2.071529e+000
1.170566549462006e-004	6.709496e+000	1.805140e+000	1.958771e+000
1.174876174271453e-004	6.729550e+000	1.593133e+000	1.928921e+000
1.178863468319607e-004	6.748060e+000	1.497023e+000	1.914631e+000
1.183022003400512e-004	6.767320e+000	1.446120e+000	1.906637e+000
1.187331148850286e-004	6.787229e+000	1.419132e+000	1.903146e+000
1.190066139372443e-004	6.799839e+000	1.409408e+000	1.901446e+000
1.193128828777301e-004	6.813936e+000	1.403071e+000	1.900536e+000
1.194425354668647e-004	6.819896e+000	1.400458e+000	1.900220e+000
1.194785004919686e-004	6.821548e+000	1.398592e+000	1.899955e+000
1.195166144009365e-004	6.823299e+000	1.394520e+000	1.899399e+000
1.195466340160278e-004	6.824678e+000	1.388682e+000	1.898376e+000
1.195789453031286e-004	6.826162e+000	1.378740e+000	1.896907e+000
1.196250836152156e-004	6.828280e+000	1.359215e+000	1.893614e+000
1.196685558023548e-004	6.830275e+000	1.336402e+000	1.889856e+000
1.197310606288579e-004	6.833143e+000	1.298315e+000	1.883527e+000
1.198082924579889e-004	6.836686e+000	1.246627e+000	1.874874e+000
1.199039734831723e-004	6.841072e+000	1.178531e+000	1.863559e+000
1.200385669889957e-004	6.847237e+000	1.078782e+000	1.846884e+000
1.205605016238842e-004	6.871101e+000	6.777742e-001	1.780071e+000
1.209535509670177e-004	6.889023e+000	3.705076e-001	1.728829e+000
1.213377807623886e-004	6.906502e+000	6.918678e-002	1.678421e+000
1.218633088127408e-004	6.930344e+000	-3.406694e-001	1.609988e+000
1.225486712973307e-004	6.961324e+000	-8.677390e-001	1.521801e+000
1.234652594105312e-004	7.002553e+000	-1.555157e+000	1.406518e+000
1.249331989647284e-004	7.068099e+000	-2.614729e+000	1.228528e+000
1.266552056161989e-004	7.144223e+000	-3.772460e+000	1.031297e+000
1.300992189191401e-004	7.293952e+000	-5.835016e+000	6.783805e-001
1.334862040054612e-004	7.437872e+000	-7.624180e+000	3.949834e-001
1.341685169028605e-004	7.466459e+000	-7.914936e+000	3.469388e-001
1.350782674327262e-004	7.504362e+000	-8.252266e+000	2.884382e-001
1.365842181688674e-004	7.566565e+000	-8.733344e+000	2.078676e-001
1.371013828334587e-004	7.587770e+000	-8.848466e+000	1.893861e-001
1.374974302663002e-004	7.603955e+000	-8.884989e+000	1.847066e-001
1.378787227300509e-004	7.619492e+000	-8.890818e+000	1.850909e-001
1.390405752576981e-004	7.666572e+000	-8.890838e+000	1.850172e-001
1.402024277853453e-004	7.713237e+000	-8.890859e+000	1.849610e-001
1.413642803129924e-004	7.759488e+000	-8.890880e+000	1.849223e-001
1.425261328406396e-004	7.805325e+000	-8.890901e+000	1.849012e-001
1.436879853682868e-004	7.850748e+000	-8.890922e+000	1.848976e-001
1.448498378959339e-004	7.895756e+000	-8.890944e+000	1.849116e-001
1.460116904235811e-004	7.940351e+000	-8.890966e+000	1.849431e-001
1.646786831683969e-004	8.597126e+000	-8.891007e+000	1.849426e-001
1.851864956683969e-004	9.182194e+000	-8.891016e+000	1.849360e-001
2.056943081683969e-004	9.615016e+000	-8.891020e+000	1.849405e-001
2.262021206683970e-004	9.888417e+000	-8.891022e+000	1.849353e-001
2.467099331683970e-004	9.997864e+000	-8.891023e+000	1.849398e-001
2.672177456683970e-004	9.941540e+000	-8.891024e+000	1.849350e-001
2.877255581683970e-004	9.720381e+000	-8.891024e+000	1.849395e-001
3.082333706683970e-004	9.338054e+000	-8.891024e+000	1.849351e-001
3.287411831683970e-004	8.800896e+000	-8.891024e+000	1.849395e-001
3.492489956683970e-004	8.117816e+000	-8.891024e+000	1.849352e-001
3.697568081683971e-004	7.300138e+000	-8.891024e+000	1.849395e-001
3.902646206683971e-004	6.361420e+000	-8.891023e+000	1.849354e-001
4.107724331683971e-004	5.317227e+000	-8.891022e+000	1.849396e-001
4.312802456683971e-004	4.184872e+000	-8.891022e+000	1.849356e-001
4.517880581683971e-004	2.983129e+000	-8.891021e+000	1.849398e-001
4.722958706683972e-004	1.731924e+000	-8.891020e+000	1.849359e-001
4.747782389676805e-004	1.577983e+000	-8.891101e+000	1.849242e-001
4.772606072669638e-004	1.423762e+000	-8.891142e+000	1.849185e-001
4.797429755662472e-004	1.269260e+000	-8.891143e+000	1.849187e-001
4.822253438655306e-004	1.114477e+000	-8.891106e+000	1.849248e-001
4.847077121648140e-004	9.594130e-001	-8.891028e+000	1.849368e-001
4.871900804640973e-004	8.040688e-001	-8.890911e+000	1.849547e-001
4.896724487633807e-004	6.484439e-001	-8.890755e+000	1.849786e-001
4.898797597773613e-004	6.354450e-001	-8.890837e+000	1.849629e-001
4.900870707913418e-004	6.224450e-001	-8.890805e+000	1.849663e-001
4.902943818053224e-004	6.094440e-001	-8.890658e+000	1.849888e-001
4.905016928193031e-004	5.964421e-001	-8.890397e+000	1.850305e-001
4.907090038332837e-004	5.834391e-001	-8.890022e+000	1.850913e-001
4.909163148472642e-004	5.704350e-001	-8.889533e+000	1.851713e-001
4.911236258612449e-004	5.574300e-001	-8.888929e+000	1.852704e-001
4.914210045254726e-004	5.387732e-001	-8.886993e+000	1.855962e-001
4.920172621241524e-004	5.013599e-001	-8.882882e+000	1.861745e-001
4.928122722557255e-004	4.514647e-001	-8.872476e+000	1.875918e-001
4.936362922100003e-004	3.997370e-001	-8.852021e+000	1.906919e-001
4.942179738959776e-004	3.632155e-001	-8.821889e+000	1.952290e-001
4.947904710313518e-004	3.272659e-001	-8.763115e+000	2.042645e-001
4.953825878718034e-004	2.900799e-001	-8.662502e+000	2.212729e-001
4.958357449115251e-004	2.616180e-001	-8.554651e+000	2.399937e-001
4.962606081240763e-004	2.349313e-001	-8.431185e+000	2.608567e-001
4.967114560140569e-004	2.066106e-001	-8.284995e+000	2.853044e-001
4.971939701123911e-004	1.762989e-001	-8.115996e+000	3.134165e-001
4.977788929418809e-004	1.395517e-001	-7.895539e+000	3.497877e-001
4.986936637714748e-004	8.207861e-002	-7.517860e+000	4.111962e-001
5.004808156376732e-004	-3.021049e-002	-6.678823e+000	5.454100e-001
5.040551193700699e-004	-2.547631e-001	-4.741584e+000	8.619549e-001
5.078192891648703e-004	-4.911028e-001	-2.420965e+000	1.254112e+000
5.104454939764134e-004	-6.558387e-001	-6.391870e-001	1.557953e+000
5.115421308837731e-004	-7.245780e-001	1.457952e-001	1.690537e+000
5.121765790795479e-004	-7.643309e-001	6.076371e-001	1.768048e+000
5.129108317148337e-004	-8.103220e-001	1.134208e+000	1.856537e+000
5.131822398544003e-004	-8.273179e-001	1.312294e+000	1.886522e+000
5.133155399498374e-004	-8.356643e-001	1.379588e+000	1.897491e+000
5.133698462076712e-004	-8.390645e-001	1.393858e+000	1.899326e+000
5.134145568451577e-004	-8.418639e-001	1.397240e+000	1.899592e+000
5.134950780297985e-004	-8.469051e-001	1.397956e+000	1.899701e+000
5.150279918316805e-004	-9.428341e-001	1.399320e+000	1.899891e+000
5.154828938717147e-004	-9.712852e-001	1.415116e+000	1.900129e+000
5.157275559307679e-004	-9.865839e-001	1.474751e+000	1.907616e+000
5.158894803221250e-004	-9.967078e-001	1.568928e+000	1.928270e+000
5.160261064631487e-004	-1.005249e+000	1.669671e+000	1.944620e+000
5.161701165987339e-004	-1.014251e+000	1.778364e+000	1.962478e+000
5.163091400948329e-004	-1.022941e+000	1.887312e+000	1.981269e+000
5.165871870870311e-004	-1.040318e+000	2.108625e+000	2.017387e+000
5.168972269024624e-004	-1.059691e+000	2.359894e+000	2.059875e+000
5.172776628158310e-004	-1.083457e+000	2.674024e+000	2.111599e+000
5.178412813927225e-004	-1.118654e+000	3.147775e+000	2.190891e+000
5.185360026200005e-004	-1.162020e+000	3.743380e+000	2.289508e+000
5.195451637732945e-004	-1.224974e+000	4.629101e+000	2.436899e+000
5.210714044065817e-004	-1.320091e+000	6.006631e+000	2.665168e+000
5.230797448797613e-004	-1.445066e+000	7.861015e+000	2.976554e+000
5.231580954302902e-004	-1.449937e+000	7.934625e+000	2.988891e+000
5.233147965313482e-004	-1.459678e+000	8.080970e+000	3.013613e+000
5.234993565206772e-004	-1.471149e+000	8.244575e+000	3.041213e+000
5.237027313502533e-004	-1.483787e+000	8.408998e+000	3.068844e+000
5.238038197055811e-004	-1.490068e+000	8.473810e+000	3.080037e+000
5.238960838990900e-004	-1.495800e+000	8.507004e+000	3.085732e+000
5.240155744377291e-004	-1.503223e+000	8.521309e+000	3.087289e+000
5.240904401411609e-004	-1.507874e+000	8.522706e+000	3.087047e+000
5.242089246249946e-004	-1.515233e+000	8.522749e+000	3.087226e+000
5.244076728883341e-004	-1.527575e+000	8.523368e+000	3.087239e+000
5.245371135435499e-004	-1.535612e+000	8.528663e+000	3.088147e+000
5.246987848397866e-004	-1.545649e+000	8.535984e+000	3.089389e+000
5.249510289774812e-004	-1.561306e+000	8.538072e+000	3.089728e+000
5.340005111799683e-004	-2.124349e+000	8.538164e+000	3.089737e+000
5.430499933824556e-004	-2.676203e+000	8.538235e+000	3.089744e+000
5.520994755849428e-004	-3.216869e+000	8.538283e+000	3.089749e+000
5.611489577874300e-004	-3.746345e+000	8.538310e+000	3.089752e+000
5.701984399899172e-004	-4.264632e+000	8.538315e+000	3.089753e+000
5.792479221924044e-004	-4.771730e+000	8.538298e+000	3.089752e+000
5.882974043948916e-004	-5.267639e+000	8.538260e+000	3.089750e+000
6.088052168948916e-004	-6.316218e+000	8.538260e+000	3.089744e+000
6.293130293948916e-004	-7.260071e+000	8.538260e+000	3.089750e+000
6.498208418948917e-004	-8.083549e+000	8.538260e+000	3.089745e+000
6.703286543948917e-004	-8.772996e+000	8.538260e+000	3.089750e+000
6.908364668948917e-004	-9.316984e+000	8.538260e+000	3.089745e+000
7.113442793948917e-004	-9.706491e+000	8.538260e+000	3.089750e+000
7.318520918948917e-004	-9.935060e+000	8.538260e+000	3.089745e+000
7.523599043948917e-004	-9.998900e+000	8.538260e+000	3.089750e+000
7.728677168948918e-004	-9.896955e+000	8.538260e+000	3.089745e+000
7.933755293948918e-004	-9.630913e+000	8.538260e+000	3.089750e+000
8.138833418948918e-004	-9.205185e+000	8.538260e+000	3.089745e+000
8.343911543948918e-004	-8.626830e+000	8.538260e+000	3.089750e+000
8.548989668948918e-004	-7.905439e+000	8.538260e+000	3.089745e+000
8.754067793948919e-004	-7.052972e+000	8.538260e+000	3.089750e+000
8.959145918948919e-004	-6.083563e+000	8.538260e+000	3.089745e+000
9.164224043948919e-004	-5.013285e+000	8.538260e+000	3.089750e+000
9.369302168948919e-004	-3.859885e+000	8.538260e+000	3.089745e+000
9.574380293948919e-004	-2.642486e+000	8.538260e+000	3.089750e+000
9.779458418948919e-004	-1.381273e+000	8.538260e+000	3.089745e+000
9.984536543948916e-004	-9.715823e-002	8.538260e+000	3.089749e+000
1.012125529394891e-003	7.611327e-001	8.538260e+000	3.089749e+000
1.032633341894891e-003	2.036076e+000	8.538260e+000	3.089745e+000
1.053141154394891e-003	3.277261e+000	8.538260e+000	3.089749e+000
1.073648966894891e-003	4.464107e+000	8.538260e+000	3.089745e+000
1.094156779394890e-003	5.576935e+000	8.538261e+000	3.089749e+000
1.100992716894890e-003	5.928200e+000	8.538441e+000	3.089747e+000
1.103466351504464e-003	6.052646e+000	8.540203e+000	3.089845e+000
1.105547265720262e-003	6.156204e+000	8.553690e+000	3.092069e+000
1.105960814955049e-003	6.176660e+000	8.564266e+000	3.093775e+000
1.106296182366265e-003	6.193218e+000	8.580965e+000	3.096359e+000
1.107017003604603e-003	6.228714e+000	8.653561e+000	3.108719e+000
1.107586195008744e-003	6.256652e+000	8.733229e+000	3.122229e+000
1.108309104366842e-003	6.292021e+000	8.837031e+000	3.139613e+000
1.108549364243452e-003	6.303747e+000	8.866427e+000	3.144834e+000
1.108734502523614e-003	6.312773e+000	8.879857e+000	3.147491e+000
1.108933973946550e-003	6.322488e+000	8.872252e+000	3.147113e+000
1.109207744629344e-003	6.335806e+000	8.812533e+000	3.138890e+000
1.109515250221889e-003	6.350742e+000	8.676515e+000	3.115764e+000
1.109707491920762e-003	6.360068e+000	8.557953e+000	3.092492e+000
1.109823675587762e-003	6.365700e+000	8.480968e+000	3.080997e+000
1.109916850574226e-003	6.370214e+000	8.413665e+000	3.069853e+000
1.110019293551203e-003	6.375174e+000	8.328275e+000	3.055192e+000
1.110124312591208e-003	6.380256e+000	8.233739e+000	3.039667e+000
1.110240145626157e-003	6.385859e+000	8.122924e+000	3.021110e+000
1.110383874592182e-003	6.392806e+000	7.979026e+000	2.997023e+000
1.111027513168559e-003	6.423852e+000	7.324947e+000	2.887999e+000
1.111671151744936e-003	6.454793e+000	6.680287e+000	2.780457e+000
1.112314790321314e-003	6.485627e+000	6.045045e+000	2.674397e+000
1.112958428897691e-003	6.516355e+000	5.419222e+000	2.569819e+000
1.113602067474068e-003	6.546977e+000	4.802818e+000	2.466721e+000
1.114245706050445e-003	6.577492e+000	4.195832e+000	2.365106e+000
1.114889344626823e-003	6.607902e+000	3.598265e+000	2.264972e+000
1.115882720818713e-003	6.654620e+000	2.715616e+000	2.117477e+000
1.116911885956627e-003	6.702748e+000	1.898602e+000	1.973406e+000
1.117385242643677e-003	6.724791e+000	1.640544e+000	1.936244e+000
1.117831079957322e-003	6.745497e+000	1.517748e+000	1.916990e+000
1.118368155161398e-003	6.770370e+000	1.446739e+000	1.906120e+000
1.118907184182656e-003	6.795257e+000	1.414397e+000	1.902410e+000
1.119171279001834e-003	6.807421e+000	1.406287e+000	1.900900e+000
1.119431387797018e-003	6.819384e+000	1.400850e+000	1.900250e+000
1.119489758706198e-003	6.822066e+000	1.397805e+000	1.899937e+000
1.119527633496376e-003	6.823805e+000	1.392993e+000	1.899167e+000
1.119560296970387e-003	6.825305e+000	1.385353e+000	1.897848e+000
1.119594637862252e-003	6.826882e+000	1.373368e+000	1.896038e+000
1.119637808926806e-003	6.828864e+000	1.353525e+000	1.892597e+000
1.119731693933447e-003	6.833172e+000	1.298985e+000	1.883543e+000
1.119854922210724e-003	6.838823e+000	1.214885e+000	1.869537e+000
1.120049616819444e-003	6.847744e+000	1.071617e+000	1.845677e+000
1.120397984610656e-003	6.863678e+000	8.050021e-001	1.801280e+000
1.120691334228463e-003	6.877071e+000	5.766641e-001	1.763160e+000
1.120990783882715e-003	6.890718e+000	3.420001e-001	1.724035e+000
1.121506729469685e-003	6.914175e+000	-6.230838e-002	1.656421e+000
1.122141015380585e-003	6.942913e+000	-5.547319e-001	1.574154e+000
1.122941259525032e-003	6.979012e+000	-1.165393e+000	1.472106e+000
1.123814370443360e-003	7.018196e+000	-1.811967e+000	1.363494e+000
1.125560592280017e-003	7.095931e+000	-3.049303e+000	1.155248e+000
1.127420294325468e-003	7.177777e+000	-4.263433e+000	9.479557e-001
1.131139698416371e-003	7.338519e+000	-6.372561e+000	5.839552e-001
1.134929345014638e-003	7.498174e+000	-8.211767e+000	2.973721e-001
1.135324587842477e-003	7.514582e+000	-8.357854e+000	2.735885e-001
1.135851578279594e-003	7.536387e+000	-8.526662e+000	2.440728e-001
1.136896703631153e-003	7.579387e+000	-8.808208e+000	1.955798e-001
1.137292494687216e-003	7.595586e+000	-8.870156e+000	1.860735e-001
1.137802412654628e-003	7.616386e+000	-8.890412e+000	1.846597e-001
1.138628017895880e-003	7.649900e+000	-8.890684e+000	1.848391e-001
1.139453623137131e-003	7.683205e+000	-8.890890e+000	1.849727e-001
1.140279228378383e-003	7.716303e+000	-8.891031e+000	1.850603e-001
1.141104833619634e-003	7.749193e+000	-8.891107e+000	1.851020e-001
1.141930438860886e-003	7.781875e+000	-8.891118e+000	1.850978e-001
1.142756044102137e-003	7.814350e+000	-8.891064e+000	1.850477e-001
1.143581649343389e-003	7.846616e+000	-8.890944e+000	1.849517e-001
1.159828335853323e-003	8.437495e+000	-8.891004e+000	1.849386e-001
1.180336148353323e-003	9.057243e+000	-8.891015e+000	1.849403e-001
1.200843960853323e-003	9.526818e+000	-8.891019e+000	1.849369e-001
1.221351773353322e-003	9.838433e+000	-8.891021e+000	1.849387e-001
1.241859585853322e-003	9.986922e+000	-8.891022e+000	1.849368e-001
1.262367398353322e-003	9.969824e+000	-8.891024e+000	1.849379e-001
1.282875210853321e-003	9.787420e+000	-8.891024e+000	1.849369e-001
1.303383023353321e-003	9.442737e+000	-8.891024e+000	1.849375e-001
1.323890835853321e-003	8.941487e+000	-8.891024e+000	1.849372e-001
1.344398648353320e-003	8.291985e+000	-8.891024e+000	1.849374e-001
1.364906460853320e-003	7.504996e+000	-8.891024e+000	1.849374e-001
1.385414273353320e-003	6.593571e+000	-8.891023e+000	1.849373e-001
1.405922085853320e-003	5.572822e+000	-8.891023e+000	1.849377e-001
1.426429898353319e-003	4.459672e+000	-8.891022e+000	1.849374e-001
1.446937710853319e-003	3.272579e+000	-8.891022e+000	1.849380e-001
1.467445523353319e-003	2.031224e+000	-8.891020e+000	1.849376e-001
1.470655931112604e-003	1.833040e+000	-8.891135e+000	1.849196e-001
1.473866338871889e-003	1.634336e+000	-8.891195e+000	1.849102e-001
1.477076746631174e-003	1.435112e+000	-8.891200e+000	1.849095e-001
1.480287154390459e-003	1.235369e+000	-8.891150e+000	1.849173e-001
1.483497562149744e-003	1.035107e+000	-8.891046e+000	1.849337e-001
1.486707969909030e-003	8.343249e-001	-8.890886e+000	1.849587e-001
1.489918377668315e-003	6.330235e-001	-8.890672e+000	1.849923e-001
1.490808528438784e-003	5.771962e-001	-8.890089e+000	1.850813e-001
1.491151935107299e-003	5.556540e-001	-8.888774e+000	1.853009e-001
1.491337496263819e-003	5.440125e-001	-8.887453e+000	1.855233e-001
1.492050316177848e-003	4.992857e-001	-8.882583e+000	1.862152e-001
1.492863522454193e-003	4.482479e-001	-8.871732e+000	1.877225e-001
